CITIFILE A.01.01
#Momentum: B.11.40.482 (*) built: Dec  2 2014 
#Momentum Date and Time: Wed May 20 15:52:52 2020

NAME Momentum.SP

#  mode: MW    reference: S_50

CONSTANT NBR_OF_PORTS 1

CONSTANT NORMALIZATION 1

VAR freq MAG 285

DATA S[1,1] RI
DATA S_50[1,1] RI
DATA S_Z0[1,1] RI
DATA Z0[1] RI
DATA PORTZ[1] RI

VAR_LIST_BEGIN
	 5200000000
	 5200781250
	 5201562500
	 5202343750
	 5203125000
	 5203906250
	 5204687500
	 5205468750
	 5206250000
	 5207031250
	 5207812500
	 5208593750
	 5209375000
	 5210156250
	 5210937500
	 5211718750
	 5212500000
	 5213281250
	 5214062500
	 5214843750
	 5215625000
	 5216406250
	 5217187500
	 5217968750
	 5218750000
	 5219531250
	 5220312500
	 5221093750
	 5221875000
	 5222656250
	 5223437500
	 5224218750
	 5225000000
	 5225781250
	 5226562500
	 5227343750
	 5228125000
	 5228906250
	 5229687500
	 5230468750
	 5231250000
	 5232031250
	 5232812500
	 5233593750
	 5234375000
	 5235156250
	 5235937500
	 5236718750
	 5237500000
	 5238281250
	 5239062500
	 5239843750
	 5240625000
	 5241406250
	 5242187500
	 5242968750
	 5243750000
	 5244531250
	 5245312500
	 5246093750
	 5246875000
	 5247656250
	 5248437500
	 5249218750
	 5250000000
	 5250781250
	 5251562500
	 5252343750
	 5253125000
	 5253906250
	 5254687500
	 5255468750
	 5256250000
	 5257031250
	 5257812500
	 5258593750
	 5259375000
	 5260156250
	 5260937500
	 5261718750
	 5262500000
	 5263281250
	 5264062500
	 5264843750
	 5265625000
	 5266406250
	 5267187500
	 5267968750
	 5268750000
	 5269531250
	 5270312500
	 5271093750
	 5271875000
	 5272656250
	 5273437500
	 5274218750
	 5275000000
	 5275781250
	 5276562500
	 5277343750
	 5278125000
	 5278906250
	 5279687500
	 5280468750
	 5281250000
	 5282031250
	 5282812500
	 5283593750
	 5284375000
	 5285156250
	 5285937500
	 5286718750
	 5287500000
	 5288281250
	 5289062500
	 5289843750
	 5290625000
	 5291406250
	 5292187500
	 5292968750
	 5293750000
	 5294531250
	 5295312500
	 5296093750
	 5296875000
	 5297656250
	 5298437500
	 5299218750
	 5300000000
	 5300781250
	 5301562500
	 5302343750
	 5303125000
	 5303906250
	 5304687500
	 5305468750
	 5306250000
	 5307031250
	 5307812500
	 5308593750
	 5309375000
	 5310156250
	 5310937500
	 5311718750
	 5312500000
	 5313281250
	 5314062500
	 5314843750
	 5315625000
	 5316406250
	 5317187500
	 5317968750
	 5318750000
	 5319531250
	 5320312500
	 5321093750
	 5321875000
	 5322656250
	 5323437500
	 5324218750
	 5325000000
	 5325781250
	 5326562500
	 5327343750
	 5328125000
	 5328906250
	 5329687500
	 5330468750
	 5331250000
	 5332031250
	 5332812500
	 5333593750
	 5334375000
	 5335156250
	 5335937500
	 5336718750
	 5337500000
	 5338281250
	 5339062500
	 5339843750
	 5340625000
	 5341406250
	 5342187500
	 5342968750
	 5343750000
	 5345312500
	 5346875000
	 5348437500
	 5350000000
	 5351562500
	 5353125000
	 5354687500
	 5356250000
	 5357812500
	 5359375000
	 5360937500
	 5362500000
	 5364062500
	 5365625000
	 5367187500
	 5368750000
	 5370312500
	 5371875000
	 5373437500
	 5375000000
	 5376562500
	 5378125000
	 5379687500
	 5381250000
	 5382812500
	 5384375000
	 5385937500
	 5387500000
	 5389062500
	 5390625000
	 5392187500
	 5393750000
	 5395312500
	 5396875000
	 5398437500
	 5400000000
	 5401562500
	 5403125000
	 5404687500
	 5406250000
	 5407812500
	 5409375000
	 5410937500
	 5412500000
	 5414062500
	 5415625000
	 5417187500
	 5418750000
	 5420312500
	 5421875000
	 5423437500
	 5425000000
	 5426562500
	 5428125000
	 5429687500
	 5431250000
	 5432812500
	 5434375000
	 5435937500
	 5437500000
	 5439062500
	 5440625000
	 5442187500
	 5443750000
	 5445312500
	 5446875000
	 5448437500
	 5450000000
	 5451562500
	 5453125000
	 5454687500
	 5456250000
	 5457812500
	 5459375000
	 5460937500
	 5462500000
	 5464062500
	 5465625000
	 5467187500
	 5468750000
	 5470312500
	 5471875000
	 5473437500
	 5475000000
	 5476562500
	 5478125000
	 5479687500
	 5481250000
	 5482812500
	 5484375000
	 5485937500
	 5487500000
	 5489062500
	 5490625000
	 5492187500
	 5493750000
	 5495312500
	 5496875000
	 5498437500
	 5500000000
VAR_LIST_END

BEGIN
	 0.49002,	 0.047263
	 0.48826,	 0.044472
	 0.48647,	 0.041703
	 0.48467,	 0.038956
	 0.48284,	 0.036232
	 0.48099,	 0.03353
	 0.47912,	 0.030851
	 0.47722,	 0.028195
	 0.47531,	 0.025563
	 0.47338,	 0.022953
	 0.47142,	 0.020368
	 0.46945,	 0.017806
	 0.46746,	 0.015267
	 0.46544,	 0.012753
	 0.46341,	 0.010264
	 0.46136,	 0.0077981
	 0.45929,	 0.0053571
	 0.45721,	 0.0029407
	 0.4551,	 0.00054901
	 0.45298,	-0.0018178
	 0.45085,	-0.0041597
	 0.44869,	-0.0064765
	 0.44652,	-0.0087681
	 0.44434,	-0.011034
	 0.44213,	-0.013275
	 0.43992,	-0.015491
	 0.43769,	-0.017681
	 0.43544,	-0.019846
	 0.43318,	-0.021984
	 0.4309,	-0.024098
	 0.42861,	-0.026185
	 0.42631,	-0.028246
	 0.424,	-0.030282
	 0.42167,	-0.032292
	 0.41933,	-0.034275
	 0.41698,	-0.036233
	 0.41461,	-0.038165
	 0.41224,	-0.04007
	 0.40985,	-0.04195
	 0.40745,	-0.043803
	 0.40504,	-0.045631
	 0.40262,	-0.047432
	 0.40019,	-0.049207
	 0.39775,	-0.050956
	 0.3953,	-0.052678
	 0.39284,	-0.054375
	 0.39038,	-0.056045
	 0.3879,	-0.057689
	 0.38541,	-0.059308
	 0.38292,	-0.060899
	 0.38042,	-0.062465
	 0.37791,	-0.064005
	 0.37539,	-0.065518
	 0.37286,	-0.067005
	 0.37033,	-0.068467
	 0.36779,	-0.069902
	 0.36525,	-0.071311
	 0.36269,	-0.072694
	 0.36014,	-0.074051
	 0.35757,	-0.075382
	 0.355,	-0.076687
	 0.35242,	-0.077966
	 0.34984,	-0.079219
	 0.34725,	-0.080446
	 0.34466,	-0.081647
	 0.34207,	-0.082823
	 0.33946,	-0.083972
	 0.33686,	-0.085096
	 0.33425,	-0.086193
	 0.33163,	-0.087265
	 0.32901,	-0.088311
	 0.32639,	-0.089331
	 0.32377,	-0.090326
	 0.32114,	-0.091295
	 0.31851,	-0.092238
	 0.31587,	-0.093155
	 0.31323,	-0.094047
	 0.31059,	-0.094912
	 0.30795,	-0.095752
	 0.30531,	-0.096567
	 0.30266,	-0.097356
	 0.30001,	-0.098119
	 0.29736,	-0.098856
	 0.29471,	-0.099568
	 0.29205,	-0.10025
	 0.2894,	-0.10091
	 0.28674,	-0.10154
	 0.28409,	-0.10215
	 0.28143,	-0.10274
	 0.27877,	-0.10329
	 0.27611,	-0.10383
	 0.27345,	-0.10433
	 0.27079,	-0.10481
	 0.26813,	-0.10527
	 0.26547,	-0.1057
	 0.26282,	-0.1061
	 0.26016,	-0.10648
	 0.2575,	-0.10683
	 0.25485,	-0.10715
	 0.25219,	-0.10745
	 0.24954,	-0.10773
	 0.24689,	-0.10797
	 0.24424,	-0.1082
	 0.24159,	-0.10839
	 0.23894,	-0.10856
	 0.2363,	-0.10871
	 0.23365,	-0.10882
	 0.23101,	-0.10892
	 0.22838,	-0.10898
	 0.22574,	-0.10902
	 0.22311,	-0.10903
	 0.22049,	-0.10902
	 0.21786,	-0.10898
	 0.21524,	-0.10892
	 0.21263,	-0.10882
	 0.21002,	-0.10871
	 0.20741,	-0.10856
	 0.20481,	-0.10839
	 0.20221,	-0.10819
	 0.19962,	-0.10797
	 0.19703,	-0.10772
	 0.19445,	-0.10744
	 0.19187,	-0.10714
	 0.1893,	-0.10681
	 0.18674,	-0.10645
	 0.18418,	-0.10607
	 0.18163,	-0.10566
	 0.17908,	-0.10522
	 0.17655,	-0.10476
	 0.17402,	-0.10426
	 0.1715,	-0.10375
	 0.16898,	-0.1032
	 0.16648,	-0.10263
	 0.16398,	-0.10203
	 0.1615,	-0.10141
	 0.15902,	-0.10076
	 0.15655,	-0.10008
	 0.15409,	-0.099378
	 0.15164,	-0.098646
	 0.1492,	-0.097887
	 0.14677,	-0.097101
	 0.14435,	-0.096288
	 0.14194,	-0.095449
	 0.13955,	-0.094582
	 0.13717,	-0.093689
	 0.13479,	-0.09277
	 0.13243,	-0.091823
	 0.13009,	-0.09085
	 0.12775,	-0.08985
	 0.12543,	-0.088824
	 0.12313,	-0.087771
	 0.12084,	-0.086692
	 0.11856,	-0.085586
	 0.11629,	-0.084454
	 0.11404,	-0.083296
	 0.11181,	-0.082111
	 0.10959,	-0.080901
	 0.10739,	-0.079665
	 0.10521,	-0.078402
	 0.10304,	-0.077114
	 0.10088,	-0.075801
	 0.098755,	-0.074461
	 0.096638,	-0.073097
	 0.094538,	-0.071707
	 0.092458,	-0.070291
	 0.090396,	-0.068851
	 0.088353,	-0.067386
	 0.086329,	-0.065896
	 0.084325,	-0.064382
	 0.082341,	-0.062843
	 0.080377,	-0.06128
	 0.078434,	-0.059693
	 0.076513,	-0.058082
	 0.074612,	-0.056447
	 0.072734,	-0.054789
	 0.070877,	-0.053108
	 0.069043,	-0.051404
	 0.067231,	-0.049676
	 0.065443,	-0.047926
	 0.063678,	-0.046154
	 0.061936,	-0.04436
	 0.060219,	-0.042543
	 0.058526,	-0.040705
	 0.056858,	-0.038846
	 0.055215,	-0.036965
	 0.052004,	-0.033142
	 0.048898,	-0.029237
	 0.045897,	-0.025253
	 0.043005,	-0.021193
	 0.040223,	-0.017058
	 0.037554,	-0.012852
	 0.035,	-0.0085777
	 0.032563,	-0.0042369
	 0.030245,	 0.00016719
	 0.028048,	 0.0046316
	 0.025973,	 0.0091534
	 0.024023,	 0.01373
	 0.022198,	 0.018357
	 0.0205,	 0.023032
	 0.018932,	 0.027753
	 0.017493,	 0.032515
	 0.016185,	 0.037315
	 0.01501,	 0.042151
	 0.013967,	 0.047018
	 0.013059,	 0.051914
	 0.012285,	 0.056834
	 0.011647,	 0.061776
	 0.011145,	 0.066736
	 0.01078,	 0.071711
	 0.010551,	 0.076696
	 0.010458,	 0.08169
	 0.010503,	 0.086687
	 0.010685,	 0.091685
	 0.011004,	 0.096681
	 0.01146,	 0.10167
	 0.012052,	 0.10665
	 0.012781,	 0.11161
	 0.013645,	 0.11656
	 0.014643,	 0.1215
	 0.015777,	 0.1264
	 0.017043,	 0.13129
	 0.018443,	 0.13614
	 0.019974,	 0.14096
	 0.021636,	 0.14575
	 0.023427,	 0.15049
	 0.025348,	 0.1552
	 0.027395,	 0.15986
	 0.029568,	 0.16447
	 0.031866,	 0.16903
	 0.034286,	 0.17354
	 0.036828,	 0.17799
	 0.039491,	 0.18238
	 0.042271,	 0.18671
	 0.045168,	 0.19098
	 0.048179,	 0.19518
	 0.051304,	 0.19931
	 0.054539,	 0.20337
	 0.057884,	 0.20735
	 0.061336,	 0.21126
	 0.064893,	 0.21509
	 0.068554,	 0.21884
	 0.072315,	 0.2225
	 0.076175,	 0.22608
	 0.080132,	 0.22957
	 0.084183,	 0.23298
	 0.088327,	 0.23629
	 0.092561,	 0.23951
	 0.096882,	 0.24263
	 0.10128,	 0.24566
	 0.10577,	 0.24859
	 0.11034,	 0.25141
	 0.11499,	 0.25414
	 0.11972,	 0.25677
	 0.12451,	 0.25929
	 0.12938,	 0.2617
	 0.13432,	 0.26401
	 0.13932,	 0.26621
	 0.14439,	 0.2683
	 0.14952,	 0.27028
	 0.1547,	 0.27215
	 0.15995,	 0.2739
	 0.16524,	 0.27555
	 0.17059,	 0.27707
	 0.17598,	 0.27849
	 0.18142,	 0.27978
	 0.1869,	 0.28096
	 0.19242,	 0.28203
	 0.19798,	 0.28297
	 0.20358,	 0.2838
	 0.2092,	 0.28451
	 0.21486,	 0.2851
	 0.22054,	 0.28556
	 0.22625,	 0.28591
	 0.23198,	 0.28614
	 0.23773,	 0.28625
	 0.2435,	 0.28624
	 0.24928,	 0.2861
	 0.25508,	 0.28585
	 0.26088,	 0.28547
	 0.26669,	 0.28498
	 0.2725,	 0.28436
	 0.27831,	 0.28362
	 0.28412,	 0.28277
	 0.28993,	 0.28179
	 0.29573,	 0.28069
END
BEGIN
	 0.70817,	 0.031037
	 0.70696,	 0.029234
	 0.70574,	 0.027442
	 0.70451,	 0.025662
	 0.70327,	 0.023893
	 0.70201,	 0.022135
	 0.70075,	 0.020389
	 0.69946,	 0.018654
	 0.69817,	 0.016931
	 0.69687,	 0.01522
	 0.69555,	 0.013521
	 0.69422,	 0.011833
	 0.69288,	 0.010158
	 0.69152,	 0.0084956
	 0.69016,	 0.0068451
	 0.68878,	 0.0052069
	 0.68739,	 0.0035813
	 0.68599,	 0.0019683
	 0.68458,	 0.00036791
	 0.68316,	-0.0012197
	 0.68173,	-0.0027945
	 0.68029,	-0.0043563
	 0.67883,	-0.0059051
	 0.67737,	-0.0074409
	 0.67589,	-0.0089635
	 0.67441,	-0.010473
	 0.67291,	-0.011969
	 0.67141,	-0.013452
	 0.66989,	-0.014921
	 0.66837,	-0.016377
	 0.66683,	-0.017819
	 0.66529,	-0.019247
	 0.66373,	-0.020662
	 0.66217,	-0.022063
	 0.66059,	-0.02345
	 0.65901,	-0.024823
	 0.65742,	-0.026183
	 0.65582,	-0.027528
	 0.65421,	-0.028859
	 0.65259,	-0.030176
	 0.65096,	-0.031479
	 0.64933,	-0.032768
	 0.64768,	-0.034042
	 0.64603,	-0.035302
	 0.64437,	-0.036548
	 0.6427,	-0.037779
	 0.64102,	-0.038995
	 0.63934,	-0.040197
	 0.63764,	-0.041385
	 0.63594,	-0.042558
	 0.63423,	-0.043716
	 0.63252,	-0.044859
	 0.63079,	-0.045987
	 0.62906,	-0.047101
	 0.62732,	-0.0482
	 0.62558,	-0.049283
	 0.62383,	-0.050352
	 0.62207,	-0.051405
	 0.6203,	-0.052444
	 0.61852,	-0.053467
	 0.61674,	-0.054475
	 0.61496,	-0.055468
	 0.61316,	-0.056445
	 0.61136,	-0.057407
	 0.60955,	-0.058354
	 0.60774,	-0.059284
	 0.60592,	-0.0602
	 0.60409,	-0.0611
	 0.60226,	-0.061984
	 0.60042,	-0.062852
	 0.59857,	-0.063704
	 0.59672,	-0.064541
	 0.59487,	-0.065361
	 0.593,	-0.066166
	 0.59114,	-0.066954
	 0.58926,	-0.067726
	 0.58738,	-0.068482
	 0.5855,	-0.069222
	 0.58361,	-0.069945
	 0.58171,	-0.070652
	 0.57981,	-0.071342
	 0.5779,	-0.072015
	 0.57599,	-0.072672
	 0.57408,	-0.073312
	 0.57216,	-0.073935
	 0.57023,	-0.074542
	 0.5683,	-0.075131
	 0.56636,	-0.075702
	 0.56442,	-0.076257
	 0.56248,	-0.076794
	 0.56053,	-0.077314
	 0.55858,	-0.077816
	 0.55662,	-0.078301
	 0.55466,	-0.078768
	 0.55269,	-0.079217
	 0.55072,	-0.079648
	 0.54875,	-0.08006
	 0.54677,	-0.080455
	 0.54479,	-0.080831
	 0.5428,	-0.081189
	 0.54081,	-0.081528
	 0.53882,	-0.081849
	 0.53683,	-0.082151
	 0.53483,	-0.082434
	 0.53283,	-0.082697
	 0.53082,	-0.082942
	 0.52882,	-0.083167
	 0.52681,	-0.083373
	 0.5248,	-0.08356
	 0.52278,	-0.083726
	 0.52076,	-0.083873
	 0.51875,	-0.084
	 0.51673,	-0.084106
	 0.5147,	-0.084193
	 0.51268,	-0.084259
	 0.51065,	-0.084305
	 0.50863,	-0.084329
	 0.5066,	-0.084334
	 0.50457,	-0.084317
	 0.50254,	-0.084279
	 0.50051,	-0.08422
	 0.49848,	-0.084139
	 0.49645,	-0.084037
	 0.49442,	-0.083914
	 0.49239,	-0.083768
	 0.49036,	-0.083601
	 0.48833,	-0.083412
	 0.48631,	-0.0832
	 0.48428,	-0.082967
	 0.48225,	-0.08271
	 0.48023,	-0.082431
	 0.47821,	-0.08213
	 0.47619,	-0.081806
	 0.47417,	-0.081458
	 0.47215,	-0.081088
	 0.47014,	-0.080694
	 0.46813,	-0.080277
	 0.46612,	-0.079837
	 0.46412,	-0.079373
	 0.46212,	-0.078885
	 0.46013,	-0.078374
	 0.45814,	-0.077838
	 0.45615,	-0.077279
	 0.45417,	-0.076696
	 0.4522,	-0.076088
	 0.45023,	-0.075456
	 0.44827,	-0.0748
	 0.44631,	-0.07412
	 0.44436,	-0.073415
	 0.44242,	-0.072685
	 0.44049,	-0.071931
	 0.43856,	-0.071152
	 0.43664,	-0.070349
	 0.43473,	-0.069521
	 0.43283,	-0.068668
	 0.43094,	-0.06779
	 0.42906,	-0.066887
	 0.42718,	-0.065959
	 0.42532,	-0.065007
	 0.42347,	-0.06403
	 0.42163,	-0.063028
	 0.4198,	-0.062
	 0.41799,	-0.060949
	 0.41618,	-0.059872
	 0.41439,	-0.058771
	 0.41261,	-0.057644
	 0.41085,	-0.056494
	 0.4091,	-0.055318
	 0.40736,	-0.054118
	 0.40564,	-0.052894
	 0.40394,	-0.051645
	 0.40225,	-0.050372
	 0.40057,	-0.049075
	 0.39892,	-0.047754
	 0.39728,	-0.046409
	 0.39565,	-0.04504
	 0.39405,	-0.043647
	 0.39246,	-0.042231
	 0.3909,	-0.040792
	 0.38935,	-0.039329
	 0.38782,	-0.037844
	 0.38631,	-0.036336
	 0.38482,	-0.034805
	 0.38335,	-0.033252
	 0.3819,	-0.031676
	 0.37908,	-0.028461
	 0.37634,	-0.025159
	 0.37369,	-0.021774
	 0.37114,	-0.018308
	 0.36869,	-0.014764
	 0.36634,	-0.011143
	 0.3641,	-0.0074497
	 0.36197,	-0.0036857
	 0.35994,	 0.00014566
	 0.35804,	 0.0040411
	 0.35624,	 0.0079972
	 0.35457,	 0.012011
	 0.35301,	 0.016078
	 0.35158,	 0.020195
	 0.35027,	 0.024359
	 0.3491,	 0.028565
	 0.34804,	 0.032809
	 0.34712,	 0.037088
	 0.34633,	 0.041397
	 0.34567,	 0.045733
	 0.34515,	 0.05009
	 0.34476,	 0.054465
	 0.3445,	 0.058854
	 0.34438,	 0.063251
	 0.3444,	 0.067654
	 0.34455,	 0.072056
	 0.34483,	 0.076455
	 0.34525,	 0.080846
	 0.34581,	 0.085224
	 0.3465,	 0.089585
	 0.34732,	 0.093926
	 0.34828,	 0.098241
	 0.34937,	 0.10252
	 0.35059,	 0.10678
	 0.35193,	 0.11099
	 0.3534,	 0.11517
	 0.355,	 0.1193
	 0.35672,	 0.12338
	 0.35857,	 0.12741
	 0.36053,	 0.13138
	 0.36261,	 0.13529
	 0.36481,	 0.13915
	 0.36711,	 0.14293
	 0.36953,	 0.14665
	 0.37206,	 0.1503
	 0.37469,	 0.15387
	 0.37742,	 0.15737
	 0.38025,	 0.16078
	 0.38318,	 0.16412
	 0.38619,	 0.16737
	 0.3893,	 0.17053
	 0.3925,	 0.17361
	 0.39578,	 0.17659
	 0.39914,	 0.17948
	 0.40258,	 0.18228
	 0.4061,	 0.18499
	 0.40968,	 0.18759
	 0.41334,	 0.1901
	 0.41705,	 0.19252
	 0.42083,	 0.19483
	 0.42467,	 0.19704
	 0.42857,	 0.19915
	 0.43251,	 0.20115
	 0.43651,	 0.20306
	 0.44055,	 0.20486
	 0.44463,	 0.20655
	 0.44876,	 0.20815
	 0.45292,	 0.20963
	 0.45711,	 0.21102
	 0.46134,	 0.2123
	 0.46559,	 0.21348
	 0.46987,	 0.21455
	 0.47418,	 0.21552
	 0.4785,	 0.21638
	 0.48284,	 0.21715
	 0.48719,	 0.21781
	 0.49156,	 0.21837
	 0.49593,	 0.21883
	 0.50031,	 0.21918
	 0.5047,	 0.21944
	 0.50908,	 0.2196
	 0.51347,	 0.21966
	 0.51786,	 0.21963
	 0.52224,	 0.2195
	 0.52661,	 0.21927
	 0.53097,	 0.21895
	 0.53533,	 0.21854
	 0.53967,	 0.21803
	 0.54399,	 0.21744
	 0.5483,	 0.21675
	 0.55259,	 0.21598
	 0.55686,	 0.21512
	 0.56111,	 0.21417
	 0.56533,	 0.21314
	 0.56953,	 0.21203
	 0.5737,	 0.21083
	 0.57785,	 0.20955
	 0.58196,	 0.20819
	 0.58605,	 0.20676
	 0.5901,	 0.20525
END
BEGIN
	 0.70817,	 0.031037
	 0.70696,	 0.029234
	 0.70574,	 0.027442
	 0.70451,	 0.025662
	 0.70327,	 0.023893
	 0.70201,	 0.022135
	 0.70075,	 0.020389
	 0.69946,	 0.018654
	 0.69817,	 0.016931
	 0.69687,	 0.01522
	 0.69555,	 0.013521
	 0.69422,	 0.011833
	 0.69288,	 0.010158
	 0.69152,	 0.0084956
	 0.69016,	 0.0068451
	 0.68878,	 0.0052069
	 0.68739,	 0.0035813
	 0.68599,	 0.0019683
	 0.68458,	 0.00036791
	 0.68316,	-0.0012197
	 0.68173,	-0.0027945
	 0.68029,	-0.0043563
	 0.67883,	-0.0059051
	 0.67737,	-0.0074409
	 0.67589,	-0.0089635
	 0.67441,	-0.010473
	 0.67291,	-0.011969
	 0.67141,	-0.013452
	 0.66989,	-0.014921
	 0.66837,	-0.016377
	 0.66683,	-0.017819
	 0.66529,	-0.019247
	 0.66373,	-0.020662
	 0.66217,	-0.022063
	 0.66059,	-0.02345
	 0.65901,	-0.024823
	 0.65742,	-0.026183
	 0.65582,	-0.027528
	 0.65421,	-0.028859
	 0.65259,	-0.030176
	 0.65096,	-0.031479
	 0.64933,	-0.032768
	 0.64768,	-0.034042
	 0.64603,	-0.035302
	 0.64437,	-0.036548
	 0.6427,	-0.037779
	 0.64102,	-0.038995
	 0.63934,	-0.040197
	 0.63764,	-0.041385
	 0.63594,	-0.042558
	 0.63423,	-0.043716
	 0.63252,	-0.044859
	 0.63079,	-0.045987
	 0.62906,	-0.047101
	 0.62732,	-0.0482
	 0.62558,	-0.049283
	 0.62383,	-0.050352
	 0.62207,	-0.051405
	 0.6203,	-0.052444
	 0.61852,	-0.053467
	 0.61674,	-0.054475
	 0.61496,	-0.055468
	 0.61316,	-0.056445
	 0.61136,	-0.057407
	 0.60955,	-0.058354
	 0.60774,	-0.059284
	 0.60592,	-0.0602
	 0.60409,	-0.0611
	 0.60226,	-0.061984
	 0.60042,	-0.062852
	 0.59857,	-0.063704
	 0.59672,	-0.064541
	 0.59487,	-0.065361
	 0.593,	-0.066166
	 0.59114,	-0.066954
	 0.58926,	-0.067726
	 0.58738,	-0.068482
	 0.5855,	-0.069222
	 0.58361,	-0.069945
	 0.58171,	-0.070652
	 0.57981,	-0.071342
	 0.5779,	-0.072015
	 0.57599,	-0.072672
	 0.57408,	-0.073312
	 0.57216,	-0.073935
	 0.57023,	-0.074542
	 0.5683,	-0.075131
	 0.56636,	-0.075702
	 0.56442,	-0.076257
	 0.56248,	-0.076794
	 0.56053,	-0.077314
	 0.55858,	-0.077816
	 0.55662,	-0.078301
	 0.55466,	-0.078768
	 0.55269,	-0.079217
	 0.55072,	-0.079648
	 0.54875,	-0.08006
	 0.54677,	-0.080455
	 0.54479,	-0.080831
	 0.5428,	-0.081189
	 0.54081,	-0.081528
	 0.53882,	-0.081849
	 0.53683,	-0.082151
	 0.53483,	-0.082434
	 0.53283,	-0.082697
	 0.53082,	-0.082942
	 0.52882,	-0.083167
	 0.52681,	-0.083373
	 0.5248,	-0.08356
	 0.52278,	-0.083726
	 0.52076,	-0.083873
	 0.51875,	-0.084
	 0.51673,	-0.084106
	 0.5147,	-0.084193
	 0.51268,	-0.084259
	 0.51065,	-0.084305
	 0.50863,	-0.084329
	 0.5066,	-0.084334
	 0.50457,	-0.084317
	 0.50254,	-0.084279
	 0.50051,	-0.08422
	 0.49848,	-0.084139
	 0.49645,	-0.084037
	 0.49442,	-0.083914
	 0.49239,	-0.083768
	 0.49036,	-0.083601
	 0.48833,	-0.083412
	 0.48631,	-0.0832
	 0.48428,	-0.082967
	 0.48225,	-0.08271
	 0.48023,	-0.082431
	 0.47821,	-0.08213
	 0.47619,	-0.081806
	 0.47417,	-0.081458
	 0.47215,	-0.081088
	 0.47014,	-0.080694
	 0.46813,	-0.080277
	 0.46612,	-0.079837
	 0.46412,	-0.079373
	 0.46212,	-0.078885
	 0.46013,	-0.078374
	 0.45814,	-0.077838
	 0.45615,	-0.077279
	 0.45417,	-0.076696
	 0.4522,	-0.076088
	 0.45023,	-0.075456
	 0.44827,	-0.0748
	 0.44631,	-0.07412
	 0.44436,	-0.073415
	 0.44242,	-0.072685
	 0.44049,	-0.071931
	 0.43856,	-0.071152
	 0.43664,	-0.070349
	 0.43473,	-0.069521
	 0.43283,	-0.068668
	 0.43094,	-0.06779
	 0.42906,	-0.066887
	 0.42718,	-0.065959
	 0.42532,	-0.065007
	 0.42347,	-0.06403
	 0.42163,	-0.063028
	 0.4198,	-0.062
	 0.41799,	-0.060949
	 0.41618,	-0.059872
	 0.41439,	-0.058771
	 0.41261,	-0.057644
	 0.41085,	-0.056494
	 0.4091,	-0.055318
	 0.40736,	-0.054118
	 0.40564,	-0.052894
	 0.40394,	-0.051645
	 0.40225,	-0.050372
	 0.40057,	-0.049075
	 0.39892,	-0.047754
	 0.39728,	-0.046409
	 0.39565,	-0.04504
	 0.39405,	-0.043647
	 0.39246,	-0.042231
	 0.3909,	-0.040792
	 0.38935,	-0.039329
	 0.38782,	-0.037844
	 0.38631,	-0.036336
	 0.38482,	-0.034805
	 0.38335,	-0.033252
	 0.3819,	-0.031676
	 0.37908,	-0.028461
	 0.37634,	-0.025159
	 0.37369,	-0.021774
	 0.37114,	-0.018308
	 0.36869,	-0.014764
	 0.36634,	-0.011143
	 0.3641,	-0.0074497
	 0.36197,	-0.0036857
	 0.35994,	 0.00014566
	 0.35804,	 0.0040411
	 0.35624,	 0.0079972
	 0.35457,	 0.012011
	 0.35301,	 0.016078
