CITIFILE A.01.01
#Momentum: B.13.00.433 (*) built: Oct 24 2018 
#Momentum Date and Time: Wed Feb 23 15:54:14 2022

NAME PortSet1/TwoP0_Dsolver_data/first_odd_mode_is_2/most_even_mode_is_1/PMLG4/LS0


CONSTANT NBR_OF_PORTS 2

VAR freq MAG 12

DATA GAMMA_1[1] RI
DATA GAMMA_1[2] RI
DATA Z0_1[1,1] RI
DATA Z0_1[1,2] RI
DATA Z0_1[2,1] RI
DATA Z0_1[2,2] RI
DATA LAMBADAI_1[1,1] RI
DATA LAMBADAI_1[1,2] RI
DATA LAMBADAI_1[2,1] RI
DATA LAMBADAI_1[2,2] RI
DATA Zcir_1[1,1] RI
DATA Zcir_1[1,2] RI
DATA Zcir_1[2,1] RI
DATA Zcir_1[2,2] RI
DATA Ycir_1[1,1] RI
DATA Ycir_1[1,2] RI
DATA Ycir_1[2,1] RI
DATA Ycir_1[2,2] RI

VAR_LIST_BEGIN
	 1500000000
	 1515000000
	 1530000000
	 1545000000
	 1656576061
	 1996570503
	 2899444782
	 3402402963
	 3905361143
	 4408319324
	 5548681363
	 6000000000
VAR_LIST_END

BEGIN
	 0.03359777501,	 37.55020653
	 0.03400242225,	 37.93751366
	 0.0344076632,	 38.32498331
	 0.03481421254,	 38.7126146
	 0.03786764319,	 41.6009607
	 0.04747558822,	 50.45385894
	 0.07495686809,	 74.29679962
	 0.09135504943,	 87.76379418
	 0.1084463205,	 101.3489682
	 0.1261778764,	 115.0439146
	 0.1685266973,	 146.4663514
	 0.1860379506,	 159.0341112
END
BEGIN
	 0.05907519036,	 44.0505717
	 0.05966853777,	 44.49099705
	 0.06026108951,	 44.93142667
	 0.06085454935,	 45.37186018
	 0.06527092261,	 48.64811959
	 0.07875107302,	 58.63327897
	 0.1147336908,	 85.16661758
	 0.1349092291,	 99.96104138
	 0.1551877273,	 114.7670115
	 0.1755753127,	 129.5856366
	 0.2222310928,	 163.2358521
	 0.2408694981,	 176.5749233
END
BEGIN
	 74.5034742281364970040158368647 ,	 0.0878861445284719322579292111186 
	 74.5609383970691794729646062478 ,	 0.0879828174728796708059519460221 
	 74.6180947276809831691934959963 ,	 0.0880779663011157648577764689435 
	 74.6749489314220937785648857243 ,	 0.0881739067961789663163685304426 
	 75.0888452522879532580191153102 ,	 0.0888767985359718570848031049536 
	 76.2663304514661462008007219993 ,	 0.0909186704795562350422954978058 
	 78.9711228203134112391126109287 ,	 0.0958368093060372044922345935447 
	 80.3001315554738113178245839663 ,	 0.0983636627502144367252157053372 
	 81.533313261286735951216542162 ,	 0.100775678188023853909527360884 
	 82.7009770322078310300639714114 ,	 0.103106424624477929774535311935 
	 85.1402258584267457308669690974 ,	 0.108129751541253052438129600432 
	 86.040101196293974794571113307 ,	 0.110032904987092422510741585029 
END
BEGIN
	-20.61478117,	-0.03967131001
	-20.56209869,	-0.03958676272
	-20.50973861,	-0.03950196254
	-20.45769621,	-0.03941819382
	-20.08006455,	-0.03880669484
	-19.01816015,	-0.03705313735
	-16.6545839,	-0.03297455677
	-15.53450223,	-0.03095935189
	-14.52163525,	-0.02908707643
	-13.58422415,	-0.02732147417
	-11.69723995,	-0.02366037959
	-11.02541578,	-0.02232301891
END
BEGIN
	-20.61478117,	-0.03967131001
	-20.56209869,	-0.03958676272
	-20.50973861,	-0.03950196254
	-20.45769621,	-0.03941819382
	-20.08006455,	-0.03880669484
	-19.01816015,	-0.03705313735
	-16.6545839,	-0.03297455677
	-15.53450223,	-0.03095935189
	-14.52163525,	-0.02908707643
	-13.58422415,	-0.02732147417
	-11.69723995,	-0.02366037959
	-11.02541578,	-0.02232301891
END
BEGIN
	 74.503474228137605450683622621 ,	 0.087886144528476928261540024323 
	 74.5609383970703305521965376101 ,	 0.0879828174728797401948909850944 
	 74.6180947276819921398782753386 ,	 0.0880779663011168056918620550277 
	 74.6749489314232874903609626926 ,	 0.0881739067961801320505443868569 
	 75.0888452522894169760547811165 ,	 0.0888767985359716766735616033657 
	 76.2663304514670841172119253315 ,	 0.0909186704795575534321372401791 
	 78.971122820314320733814383857 ,	 0.0958368093060550652051432507506 
	 80.3001315554754739878262626007 ,	 0.0983636627502097043995732406074 
	 81.5333132612875601807900238782 ,	 0.100775678188024936376976370411 
	 82.7009770322091526395524851978 ,	 0.10310642462447972000916252 
	 85.14022585842896262420254061 ,	 0.108129751541282778659613938999 
	 86.0401011962952537714954814874 ,	 0.11003290498709404621191509932 
END
BEGIN
	 0.04633648268,	 40.80038911
	 0.04683548001,	 41.21425536
	 0.04733437635,	 41.62820499
	 0.04783438094,	 42.04223739
	 0.0515692829,	 45.12454015
	 0.06311333062,	 54.54356895
	 0.09484527946,	 79.7317086
	 0.1131321393,	 93.86241778
	 0.1318170239,	 108.0579898
	 0.1508765946,	 122.3147756
	 0.195378895,	 154.8511018
	 0.2134537243,	 167.8045173
END
BEGIN
	-0.01273870768,	-3.250182587
	-0.01283305776,	-3.276741694
	-0.01292671315,	-3.303221681
	-0.01302016841,	-3.329622793
	-0.01370163971,	-3.523579445
	-0.0156377424,	-4.089710015
	-0.01988841137,	-5.434908978
	-0.02177708983,	-6.0986236
	-0.0233707034,	-6.709021657
	-0.02469871815,	-7.270861032
	-0.02685219775,	-8.384750348
	-0.02741577374,	-8.770406056
END
BEGIN
	-0.01273870768,	-3.250182587
	-0.01283305776,	-3.276741694
	-0.01292671315,	-3.303221681
	-0.01302016841,	-3.329622793
	-0.01370163971,	-3.523579445
	-0.0156377424,	-4.089710015
	-0.01988841137,	-5.434908978
	-0.02177708983,	-6.0986236
	-0.0233707034,	-6.709021657
	-0.02469871815,	-7.270861032
	-0.02685219775,	-8.384750348
	-0.02741577374,	-8.770406056
END
BEGIN
	 0.04633648268,	 40.80038911
	 0.04683548001,	 41.21425536
	 0.04733437635,	 41.62820499
	 0.04783438094,	 42.04223739
	 0.0515692829,	 45.12454015
	 0.06311333062,	 54.54356895
	 0.09484527946,	 79.7317086
	 0.1131321393,	 93.86241778
	 0.1318170239,	 108.0579898
	 0.1508765946,	 122.3147756
	 0.195378895,	 154.8511018
	 0.2134537243,	 167.8045173
END
BEGIN
	 2.83276605298938e-07 ,	 8.75000583561994e-10 
	 2.92085935241057e-07 ,	 8.75700501271812e-10 
	 3.00243426432928e-07 ,	 8.76397081808795e-10 
	 3.09416170711638e-07 ,	 8.77090382035837e-10 
	 3.83768448151425e-07 ,	 8.82149715052875e-10 
	 6.84466630306817e-07 ,	 8.96658692638996e-10 
	 2.19032501206638e-06 ,	 9.30622421262411e-10 
	 3.6133923202267e-06 ,	 9.47626729470539e-10 
	 5.56498898460429e-06 ,	 9.6360067643483e-10 
	 8.13546030261675e-06 ,	 9.78873624880633e-10 
	 1.67289867408967e-05 ,	 1.01127287677296e-09 
	 2.13678056807093e-05 ,	 1.02339315166558e-09 
END
BEGIN
	 -1.15540743130611e-07 ,	 -3.05087570819955e-10 
	 -1.18592467821205e-07 ,	 -3.04444845793968e-10 
	 -1.20910628182789e-07 ,	 -3.03805792348799e-10 
	 -1.24049346542585e-07 ,	 -3.03170351459472e-10 
	 -1.48949384754437e-07 ,	 -2.9855162621708e-10 
	 -2.42373732154455e-07 ,	 -2.85489806101247e-10 
	 -6.28444609465555e-07 ,	 -2.56019007650945e-10 
	 -9.34547126556127e-07 ,	 -2.41855084033881e-10 
	 -1.30704994466086e-06 ,	 -2.28919987393915e-10 
	 -1.74431114688778e-06 ,	 -2.1685785730004e-10 
	 -2.97076734871011e-06 ,	 -1.92264241193022e-10 
	 -3.54455084374834e-06 ,	 -1.83400618190415e-10 
END
BEGIN
	 -1.15540743716367e-07 ,	 -3.05087570819955e-10 
	 -1.18592467659739e-07 ,	 -3.04444845793968e-10 
	 -1.20910628282699e-07 ,	 -3.03805792348799e-10 
	 -1.2404934654043e-07 ,	 -3.03170351459472e-10 
	 -1.48949384747029e-07 ,	 -2.98551626217079e-10 
	 -2.42373732226868e-07 ,	 -2.85489806101248e-10 
	 -6.28444610349136e-07 ,	 -2.56019007650945e-10 
	 -9.34547127572428e-07 ,	 -2.41855084033881e-10 
	 -1.30704994465355e-06 ,	 -2.28919987393916e-10 
	 -1.74431114705046e-06 ,	 -2.16857857300041e-10 
	 -2.97076735670435e-06 ,	 -1.92264241193023e-10 
	 -3.54455084388559e-06 ,	 -1.83400618190416e-10 
END
BEGIN
	 2.83276604854125e-07 ,	 8.75000583562007e-10 
	 2.920859353953e-07 ,	 8.75700501271826e-10 
	 3.00243426443592e-07 ,	 8.76397081808807e-10 
	 3.09416170740376e-07 ,	 8.77090382035852e-10 
	 3.8376844837963e-07 ,	 8.82149715052892e-10 
	 6.84466630269983e-07 ,	 8.96658692639007e-10 
	 2.19032500848158e-06 ,	 9.30622421262422e-10 
	 3.61339232184289e-06 ,	 9.47626729470558e-10 
	 5.56498898458405e-06 ,	 9.6360067643484e-10 
	 8.13546030256364e-06 ,	 9.78873624880649e-10 
	 1.67289867294192e-05 ,	 1.01127287677299e-09 
	 2.13678056807109e-05 ,	 1.02339315166559e-09 
END
BEGIN
	 0.4688470953,	 2.318238351e-08
	 0.4735290084,	 2.315782017e-08
	 0.4782048897,	 2.313349055e-08
	 0.4828864721,	 2.310938998e-08
	 0.5177059273,	 2.293689847e-08
	 0.6237642221,	 2.247297e-08
	 0.9051037596,	 2.153612557e-08
	 1.06164878611767310445657130913 ,	 2.11305696660802207625493330046e-08 
	 1.21819911780076273188910818135 ,	 2.07816867401842106160512877637e-08 
	 1.3745420997198749546441831626 ,	 2.04720717998942194856915673291e-08 
	 1.72868917549470380023990401241 ,	 1.98825509165669230686659268732e-08 
	 1.86874548825945030472439611913 ,	 1.96821694318224999756513694284e-08 
END
BEGIN
	 0.000901579396052621 ,	 4.67071300958271e-09 
	 0.000907359988519402 ,	 4.64711365722319e-09 
	 0.000913932332683443 ,	 4.6237483590452e-09 
	 0.000919591839245476 ,	 4.60061284400335e-09 
	 0.000959499166183653 ,	 4.43532014955583e-09 
	 0.00105686168719193 ,	 3.99362780461962e-09 
	 0.0011314564046872 ,	 3.11869325019633e-09 
	 0.00105219122280287 ,	 2.74946050748401e-09 
	 0.00100528133972089 ,	 2.43805596181522e-09 
	 0.000766103796708384 ,	 2.1669153810409e-09 
	 -0.00011711261263081 ,	 1.66745343996872e-09 
	 -0.000599576792087886 ,	 1.50350603289481e-09 
END
BEGIN
	 0.000901579396067304 ,	 4.67071300958272e-09 
	 0.000907359988515322 ,	 4.64711365722318e-09 
	 0.000913932332685996 ,	 4.62374835904519e-09 
	 0.000919591839245393 ,	 4.60061284400334e-09 
	 0.00095949916618443 ,	 4.43532014955583e-09 
	 0.00105686168719388 ,	 3.99362780461963e-09 
	 0.0011314564046967 ,	 3.11869325019633e-09 
	 0.0010521912228304 ,	 2.74946050748399e-09 
	 0.00100528133972022 ,	 2.43805596181522e-09 
	 0.000766103796712603 ,	 2.1669153810409e-09 
	 -0.000117112612493142 ,	 1.66745343996874e-09 
	 -0.000599576792084555 ,	 1.50350603289482e-09 
END
BEGIN
	 0.4688470953,	 2.318238351e-08
	 0.4735290084,	 2.315782017e-08
	 0.4782048897,	 2.313349055e-08
	 0.4828864721,	 2.310938998e-08
	 0.5177059273,	 2.293689847e-08
	 0.6237642221,	 2.247297e-08
	 0.9051037596,	 2.153612557e-08
	 1.06164878611761093196719230036 ,	 2.11305696660797906286308054302e-08 
	 1.21819911780075162965886192978 ,	 2.0781686740184008783981824825e-08 
	 1.37454209971985363836211035959 ,	 2.04720717998938919221689963302e-08 
	 1.72868917549487211005043718615 ,	 1.98825509165664069079636937839e-08 
	 1.86874548825942232710417556518 ,	 1.96821694318222088080757507626e-08 
END
