CITIFILE A.01.01
#Momentum: B.11.40.482 (*) built: Dec  2 2014 
#Momentum Date and Time: Mon Jun 20 12:42:00 2022

NAME PortSet1/TwoP0_Dsolver_data/first_odd_mode_is_1/most_even_mode_is_1/PMLG4/LS0

CONSTANT NBR_OF_PORTS 1

VAR freq MAG 6

DATA GAMMA_1[1] RI
DATA Z0_1[1,1] RI
DATA LAMBADAI_1[1,1] RI
DATA Zcir_1[1,1] RI
DATA Ycir_1[1,1] RI

VAR_LIST_BEGIN
	 2000000000
	 2020000000
	 2040000000
	 2060000000
	 3785276129
	 5000000000
VAR_LIST_END

BEGIN
	 0.1035470898,	 76.01197682
	 0.1046102764,	 76.77703646
	 0.1056740951,	 77.54222289
	 0.1067385513,	 78.30753724
	 0.2010166178,	 144.8418003
	 0.2702712854,	 192.3316051
END
BEGIN
	 50.961463484717477 ,	 0.0694115720466323 
	 50.963343608679672 ,	 0.069427811975735373 
	 50.965244020420712 ,	 0.069444106847951603 
	 50.967165347671958 ,	 0.069460454385741208 
	 51.21803119882226 ,	 0.071037075142303605 
	 51.498875418207369 ,	 0.07228597481361955 
END
BEGIN
	 0.1035470898,	 76.01197682
	 0.1046102764,	 76.77703646
	 0.1056740951,	 77.54222289
	 0.1067385513,	 78.30753724
	 0.2010166178,	 144.8418003
	 0.2702712854,	 192.3316051
END
BEGIN
	 2.12467261525955e-006 ,	 8.18246643455293e-010 
	 2.19734949723736e-006 ,	 8.18329483319144e-010 
	 2.27119931743743e-006 ,	 8.18412958782261e-010 
	 2.34723736163012e-006 ,	 8.18497082595262e-010 
	 1.73534045776157e-005 ,	 8.27960404706316e-010 
	 4.19124677553326e-005 ,	 8.36890730037074e-010 
END
BEGIN
	 1.5308156190412525 ,	 4.4715623246913794e-008 
	 1.5464736871816114 ,	 4.4716850646124985e-008 
	 1.5621392593675341 ,	 4.4718076869503853e-008 
	 1.5778123216286244 ,	 4.4719301505483764e-008 
	 2.9561806039907972 ,	 4.4794279549383383e-008 
	 3.9519871364217418 ,	 4.4784935535790707e-008 
END
