CITIFILE A.01.01
#Momentum: B.11.40.482 (*) built: Dec  2 2014 
#Momentum Date and Time: Mon Jun 20 12:42:54 2022

NAME Momentum.SP

#  mode: MW    project: proj

CONSTANT NBR_OF_PORTS 1

CONSTANT NORMALIZATION 1

VAR freq MAG 76

DATA S[1,1] RI
DATA S_50[1,1] RI
DATA S_Z0[1,1] RI
DATA GAMMA[1] RI
DATA Z0[1] RI
DATA PORTZ[1] RI

VAR_LIST_BEGIN
	 2000000000
	 2040000000
	 2080000000
	 2120000000
	 2160000000
	 2200000000
	 2240000000
	 2280000000
	 2320000000
	 2360000000
	 2400000000
	 2440000000
	 2480000000
	 2520000000
	 2560000000
	 2600000000
	 2640000000
	 2680000000
	 2720000000
	 2760000000
	 2800000000
	 2840000000
	 2880000000
	 2920000000
	 2960000000
	 3000000000
	 3040000000
	 3080000000
	 3120000000
	 3160000000
	 3200000000
	 3240000000
	 3280000000
	 3320000000
	 3360000000
	 3400000000
	 3440000000
	 3480000000
	 3520000000
	 3560000000
	 3600000000
	 3640000000
	 3680000000
	 3720000000
	 3760000000
	 3800000000
	 3840000000
	 3880000000
	 3920000000
	 3960000000
	 4000000000
	 4040000000
	 4080000000
	 4120000000
	 4160000000
	 4200000000
	 4240000000
	 4280000000
	 4320000000
	 4360000000
	 4400000000
	 4440000000
	 4480000000
	 4520000000
	 4560000000
	 4600000000
	 4640000000
	 4680000000
	 4720000000
	 4760000000
	 4800000000
	 4840000000
	 4880000000
	 4920000000
	 4960000000
	 5000000000
VAR_LIST_END

BEGIN
	 0.973317595,	-0.190797334
	 0.954533696,	-0.267057202
	 0.929162035,	-0.342822717
	 0.896829065,	-0.417817526
	 0.85699805,	-0.491762022
	 0.808866926,	-0.564354646
	 0.751183686,	-0.635232081
	 0.681828424,	-0.703928839
	 0.597118291,	-0.769497598
	 0.490283873,	-0.829514628
	 0.347855421,	-0.876736713
	 0.142455289,	-0.884948552
	-0.16109442,	-0.742822378
	-0.278179114,	-0.129433966
	 0.480098753,	 0.0763119008
	 0.711698226,	-0.37115688
	 0.6377971,	-0.635758991
	 0.525443734,	-0.777536121
	 0.414857596,	-0.861736858
	 0.310132403,	-0.91505157
	 0.210464698,	-0.948966587
	 0.114825932,	-0.96895367
	 0.0224346389,	-0.977930806
	-0.067158168,	-0.977544639
	-0.15410198,	-0.968794608
	-0.238388781,	-0.952336219
	-0.319879913,	-0.928631165
	-0.398301175,	-0.898048944
	-0.473456085,	-0.860873172
	-0.545026019,	-0.817321475
	-0.612532078,	-0.767724434
	-0.675698223,	-0.712246953
	-0.734002351,	-0.651244976
	-0.787082778,	-0.584926892
	-0.834478244,	-0.513592911
	-0.875704895,	-0.437585307
	-0.910297202,	-0.357201409
	-0.937696164,	-0.272963731
	-0.957432033,	-0.18507728
	-0.968883575,	-0.094262597
	-0.971475649,	-0.000867763202
	-0.964538934,	 0.0944659953
	-0.947340979,	 0.191069357
	-0.919057159,	 0.288141482
	-0.87874518,	 0.384718436
	-0.825302043,	 0.479621082
	-0.757455228,	 0.571302974
	-0.673704452,	 0.657719847
	-0.572144972,	 0.736185109
	-0.451258929,	 0.802422465
	-0.308808008,	 0.85084695
	-0.143664971,	 0.872731594
	 0.0431212154,	 0.855248197
	 0.24448966,	 0.780201107
	 0.440569597,	 0.624815196
	 0.587412241,	 0.370686184
	 0.612272758,	 0.0304818338
	 0.445291248,	-0.313223315
	 0.102326945,	-0.519230961
	-0.284666917,	-0.501096916
	-0.573018784,	-0.303422648
	-0.713485811,	-0.0306976141
	-0.724192488,	 0.2383753
	-0.640343793,	 0.466330329
	-0.488296683,	 0.637793757
	-0.282254675,	 0.739524106
	-0.0327715602,	 0.741801643
	 0.215075977,	 0.580023185
	 0.276642368,	 0.208928816
	-0.0779600508,	-0.0555538468
	-0.439150637,	 0.143489977
	-0.489156375,	 0.459900388
	-0.379623041,	 0.679029065
	-0.22565905,	 0.804592388
	-0.0666352509,	 0.867046799
	 0.0864366493,	 0.887075569
END
BEGIN
	 0.973317595,	-0.190797334
	 0.954533696,	-0.267057202
	 0.929162035,	-0.342822717
	 0.896829065,	-0.417817526
	 0.85699805,	-0.491762022
	 0.808866926,	-0.564354646
	 0.751183686,	-0.635232081
	 0.681828424,	-0.703928839
	 0.597118291,	-0.769497598
	 0.490283873,	-0.829514628
	 0.347855421,	-0.876736713
	 0.142455289,	-0.884948552
	-0.16109442,	-0.742822378
	-0.278179114,	-0.129433966
	 0.480098753,	 0.0763119008
	 0.711698226,	-0.37115688
	 0.6377971,	-0.635758991
	 0.525443734,	-0.777536121
	 0.414857596,	-0.861736858
	 0.310132403,	-0.91505157
	 0.210464698,	-0.948966587
	 0.114825932,	-0.96895367
	 0.0224346389,	-0.977930806
	-0.067158168,	-0.977544639
	-0.15410198,	-0.968794608
	-0.238388781,	-0.952336219
	-0.319879913,	-0.928631165
	-0.398301175,	-0.898048944
	-0.473456085,	-0.860873172
	-0.545026019,	-0.817321475
	-0.612532078,	-0.767724434
	-0.675698223,	-0.712246953
	-0.734002351,	-0.651244976
	-0.787082778,	-0.584926892
	-0.834478244,	-0.513592911
	-0.875704895,	-0.437585307
	-0.910297202,	-0.357201409
	-0.937696164,	-0.272963731
	-0.957432033,	-0.18507728
	-0.968883575,	-0.094262597
	-0.971475649,	-0.000867763202
	-0.964538934,	 0.0944659953
	-0.947340979,	 0.191069357
	-0.919057159,	 0.288141482
	-0.87874518,	 0.384718436
	-0.825302043,	 0.479621082
	-0.757455228,	 0.571302974
	-0.673704452,	 0.657719847
	-0.572144972,	 0.736185109
	-0.451258929,	 0.802422465
	-0.308808008,	 0.85084695
	-0.143664971,	 0.872731594
	 0.0431212154,	 0.855248197
	 0.24448966,	 0.780201107
	 0.440569597,	 0.624815196
	 0.587412241,	 0.370686184
	 0.612272758,	 0.0304818338
	 0.445291248,	-0.313223315
	 0.102326945,	-0.519230961
	-0.284666917,	-0.501096916
	-0.573018784,	-0.303422648
	-0.713485811,	-0.0306976141
	-0.724192488,	 0.2383753
	-0.640343793,	 0.466330329
	-0.488296683,	 0.637793757
	-0.282254675,	 0.739524106
	-0.0327715602,	 0.741801643
	 0.215075977,	 0.580023185
	 0.276642368,	 0.208928816
	-0.0779600508,	-0.0555538468
	-0.439150637,	 0.143489977
	-0.489156375,	 0.459900388
	-0.379623041,	 0.679029065
	-0.22565905,	 0.804592388
	-0.0666352509,	 0.867046799
	 0.0864366493,	 0.887075569
END
BEGIN
	 0.97244773,	-0.194391048
	 0.952958103,	-0.27202103
	 0.926645043,	-0.349063561
	 0.893138252,	-0.425203297
	 0.851906915,	-0.500118057
	 0.802157389,	-0.573457856
	 0.742648675,	-0.644800673
	 0.671273862,	-0.713603075
	 0.584372506,	-0.778800116
	 0.475232496,	-0.837769354
	 0.330572354,	-0.882899442
	 0.123754544,	-0.887326223
	-0.177541097,	-0.739740179
	-0.287840524,	-0.127574388
	 0.472267573,	 0.0772377711
	 0.705057996,	-0.376582684
	 0.627151581,	-0.644224774
	 0.51112857,	-0.786125046
	 0.397789722,	-0.869274684
	 0.29105418,	-0.921025224
	 0.189959061,	-0.953123511
	 0.0933773506,	-0.971168024
	 0.000465592611,	-0.978152686
	-0.0892660676,	-0.975780365
	-0.175998028,	-0.965099451
	-0.259749767,	-0.946809792
	-0.340410186,	-0.921414745
	-0.417735516,	-0.8893237
	-0.491561409,	-0.850854268
	-0.561604763,	-0.806256657
	-0.627430245,	-0.755890862
	-0.688803471,	-0.699943489
	-0.745253805,	-0.638788263
	-0.796468773,	-0.572643789
	-0.842041288,	-0.501813814
	-0.881543795,	-0.426635871
	-0.914566355,	-0.347394889
	-0.940608921,	-0.264588712
	-0.959253633,	-0.178394039
	-0.969934986,	-0.0894838946
	-0.972124428,	 0.00184366206
	-0.96519581,	 0.0950136179
	-0.948451346,	 0.189433968
	-0.921090309,	 0.284394706
	-0.882179688,	 0.379036858
	-0.830606405,	 0.472300723
	-0.765059969,	 0.562775164
	-0.683962927,	 0.648566069
	-0.585282207,	 0.727146803
	-0.46727594,	 0.794394528
	-0.327387725,	 0.844843502
	-0.164011088,	 0.869772755
	 0.0224364545,	 0.856099449
	 0.22554892,	 0.784855614
	 0.425632423,	 0.631724235
	 0.577327762,	 0.376312045
	 0.604110562,	 0.0310747359
	 0.433216702,	-0.316681902
	 0.0850925186,	-0.520121165
	-0.30095834,	-0.4962291
	-0.583750047,	-0.297100135
	-0.720086719,	-0.0280490223
	-0.730725965,	 0.235791486
	-0.650111832,	 0.459972372
	-0.502778652,	 0.630493133
	-0.300994095,	 0.734399064
	-0.0531506261,	 0.741298998
	 0.197628922,	 0.583584118
	 0.263199628,	 0.210869686
	-0.0921485425,	-0.0545872875
	-0.450588461,	 0.143139945
	-0.502021959,	 0.454830949
	-0.39717261,	 0.672483332
	-0.247366764,	 0.799696146
	-0.0908830576,	 0.865339855
	 0.0612724071,	 0.88906215
END
BEGIN
	 0.10354709,	 76.0119768
	 0.105674095,	 77.5422229
	 0.107803617,	 79.0729715
	 0.109935585,	 80.6042024
	 0.112070009,	 82.1359204
	 0.114206902,	 83.6681302
	 0.116346276,	 85.2008367
	 0.118488141,	 86.7340446
	 0.120632511,	 88.2677588
	 0.122779396,	 89.8019841
	 0.124928809,	 91.3367252
	 0.127080761,	 92.871987
	 0.129235265,	 94.4077742
	 0.131392331,	 95.9440915
	 0.133551973,	 97.4809439
	 0.135714201,	 99.018336
	 0.137879028,	 100.556273
	 0.140046466,	 102.094759
	 0.142216526,	 103.633798
	 0.144389221,	 105.173397
	 0.146564562,	 106.713559
	 0.148742562,	 108.25429
	 0.150923233,	 109.795593
	 0.153106585,	 111.337475
	 0.155292633,	 112.879938
	 0.157481386,	 114.422989
	 0.159672859,	 115.966632
	 0.161867062,	 117.510872
	 0.164064008,	 119.055713
	 0.166263708,	 120.60116
	 0.168466176,	 122.147217
	 0.170671422,	 123.693891
	 0.17287946,	 125.241184
	 0.175090301,	 126.789102
	 0.177303958,	 128.33765
	 0.179520442,	 129.886832
	 0.181739766,	 131.436653
	 0.183961943,	 132.987117
	 0.186186983,	 134.53823
	 0.188414901,	 136.089995
	 0.190645707,	 137.642418
	 0.192879414,	 139.195503
	 0.195116034,	 140.749255
	 0.19735558,	 142.303678
	 0.199598065,	 143.858777
	 0.201840827,	 145.414037
	 0.204081741,	 146.969024
	 0.2063253,	 148.524603
	 0.208571519,	 150.080778
	 0.21082041,	 151.637551
	 0.213071985,	 153.194923
	 0.215326257,	 154.752899
	 0.217583239,	 156.31148
	 0.219842943,	 157.870669
	 0.222105383,	 159.430469
	 0.224370572,	 160.990881
	 0.226638521,	 162.551909
	 0.228909244,	 164.113555
	 0.231182754,	 165.675821
	 0.233459063,	 167.238709
	 0.235738185,	 168.802223
	 0.238020132,	 170.366365
	 0.240304917,	 171.931137
	 0.242592553,	 173.496541
	 0.244883053,	 175.06258
	 0.24717643,	 176.629257
	 0.249472696,	 178.196573
	 0.251771866,	 179.764532
	 0.254073951,	 181.333135
	 0.256378966,	 182.902385
	 0.258686922,	 184.472285
	 0.260997833,	 186.042836
	 0.263311711,	 187.614041
	 0.265628571,	 189.185903
	 0.267948425,	 190.758423
	 0.270271285,	 192.331605
END
BEGIN
	 50.961463479999999 ,	 0.069411572049999995 
	 50.96524402 ,	 0.069444106850000006 
	 50.96910939 ,	 0.069476845169999996 
	 50.973065609999999 ,	 0.069509756660000005 
	 50.977112650000002 ,	 0.069542841640000005 
	 50.981250490000001 ,	 0.069576100419999995 
	 50.985479089999998 ,	 0.069609533330000001 
	 50.98979843 ,	 0.069643140650000004 
	 50.994208489999998 ,	 0.069676922680000003 
	 50.998709230000003 ,	 0.069710879710000007 
	 51.003300629999998 ,	 0.069745011999999995 
	 51.007982660000003 ,	 0.069779319849999993 
	 51.01275528 ,	 0.069813803509999994 
	 51.017618489999997 ,	 0.069848463250000006 
	 51.022572230000002 ,	 0.069883299319999995 
	 51.027616500000001 ,	 0.069918311989999996 
	 51.032751249999997 ,	 0.069953501500000001 
	 51.037976469999997 ,	 0.069988868100000004 
	 51.043292119999997 ,	 0.070024412029999997 
	 51.048698170000002 ,	 0.07006013354 
	 51.054194600000002 ,	 0.070096032870000005 
	 51.059781379999997 ,	 0.070132110250000004 
	 51.065458470000003 ,	 0.070168365920000003 
	 51.071225859999998 ,	 0.070204800110000007 
	 51.077083510000001 ,	 0.070241413050000007 
	 51.083031390000002 ,	 0.070278204979999995 
	 51.089069469999998 ,	 0.070315176110000002 
	 51.095197730000002 ,	 0.070352326689999994 
	 51.101416139999998 ,	 0.070389656920000002 
	 51.107724660000002 ,	 0.070427167050000003 
	 51.11412327 ,	 0.070464857290000002 
	 51.120611949999997 ,	 0.070502727860000003 
	 51.127190650000003 ,	 0.070540778989999997 
	 51.133859350000002 ,	 0.070579010890000002 
	 51.140618019999998 ,	 0.070617423799999995 
	 51.147466629999997 ,	 0.070656017919999994 
	 51.154405160000003 ,	 0.070694793480000004 
	 51.16143357 ,	 0.0707337507 
	 51.168551829999998 ,	 0.070772889790000001 
	 51.175759919999997 ,	 0.070812210979999998 
	 51.183057789999999 ,	 0.070851714489999995 
	 51.190445439999998 ,	 0.070891400519999995 
	 51.197922810000001 ,	 0.070931269310000003 
	 51.205489890000003 ,	 0.070971321059999995 
	 51.213146649999999 ,	 0.071011556000000003 
	 51.220921169999997 ,	 0.071051252529999998 
	 51.228836090000001 ,	 0.071089873949999993 
	 51.236844269999999 ,	 0.071128652279999996 
	 51.244945700000002 ,	 0.071167589909999995 
	 51.253140350000002 ,	 0.07120668912 
	 51.261428219999999 ,	 0.071245952119999997 
	 51.269809279999997 ,	 0.071285381029999997 
	 51.278283520000002 ,	 0.071324977930000005 
	 51.286850919999999 ,	 0.071364744800000005 
	 51.295511470000001 ,	 0.071404683570000002 
	 51.30426516 ,	 0.07144479611 
	 51.313111960000001 ,	 0.071485084219999995 
	 51.322051870000003 ,	 0.071525549660000007 
	 51.331084869999998 ,	 0.071566194129999997 
	 51.340210939999999 ,	 0.071607019270000002 
	 51.349430079999998 ,	 0.071648026690000005 
	 51.35874226 ,	 0.071689217929999993 
	 51.368147469999997 ,	 0.071730594509999995 
	 51.377645700000002 ,	 0.071772157899999994 
	 51.387236940000001 ,	 0.071813909529999997 
	 51.39692118 ,	 0.071855850779999994 
	 51.406698390000003 ,	 0.071897983009999999 
	 51.416568570000003 ,	 0.071940307549999999 
	 51.426531709999999 ,	 0.07198282567 
	 51.436587789999997 ,	 0.072025538639999998 
	 51.446736799999996 ,	 0.072068447679999995 
	 51.456978730000003 ,	 0.072111553980000007 
	 51.467313570000002 ,	 0.072154858710000006 
	 51.477741299999998 ,	 0.072198363020000003 
	 51.488261919999999 ,	 0.072242068029999995 
	 51.498875419999997 ,	 0.07228597481 
END
BEGIN
	 50 ,	 0 
	 50 ,	 0 
	 50 ,	 0 
	 50 ,	 0 
	 50 ,	 0 
	 50 ,	 0 
	 50 ,	 0 
	 50 ,	 0 
	 50 ,	 0 
	 50 ,	 0 
	 50 ,	 0 
	 50 ,	 0 
	 50 ,	 0 
	 50 ,	 0 
	 50 ,	 0 
	 50 ,	 0 
	 50 ,	 0 
	 50 ,	 0 
	 50 ,	 0 
	 50 ,	 0 
	 50 ,	 0 
	 50 ,	 0 
	 50 ,	 0 
	 50 ,	 0 
	 50 ,	 0 
	 50 ,	 0 
	 50 ,	 0 
	 50 ,	 0 
	 50 ,	 0 
	 50 ,	 0 
	 50 ,	 0 
	 50 ,	 0 
	 50 ,	 0 
	 50 ,	 0 
	 50 ,	 0 
	 50 ,	 0 
	 50 ,	 0 
	 50 ,	 0 
	 50 ,	 0 
	 50 ,	 0 
	 50 ,	 0 
	 50 ,	 0 
	 50 ,	 0 
	 50 ,	 0 
	 50 ,	 0 
	 50 ,	 0 
	 50 ,	 0 
	 50 ,	 0 
	 50 ,	 0 
	 50 ,	 0 
	 50 ,	 0 
	 50 ,	 0 
	 50 ,	 0 
	 50 ,	 0 
	 50 ,	 0 
	 50 ,	 0 
	 50 ,	 0 
	 50 ,	 0 
	 50 ,	 0 
	 50 ,	 0 
	 50 ,	 0 
	 50 ,	 0 
	 50 ,	 0 
	 50 ,	 0 
	 50 ,	 0 
	 50 ,	 0 
	 50 ,	 0 
	 50 ,	 0 
	 50 ,	 0 
	 50 ,	 0 
	 50 ,	 0 
	 50 ,	 0 
	 50 ,	 0 
	 50 ,	 0 
	 50 ,	 0 
	 50 ,	 0 
END
