CITIFILE A.01.01
#Momentum: B.11.40.482 (*) built: Dec  2 2014 
#Momentum Date and Time: Fri Jun 17 15:05:59 2022

NAME Momentum.SP

#  mode: MW    project: proj

CONSTANT NBR_OF_PORTS 1

CONSTANT NORMALIZATION 1

VAR freq MAG 26

DATA S[1,1] RI
DATA S_50[1,1] RI
DATA S_Z0[1,1] RI
DATA GAMMA[1] RI
DATA Z0[1] RI
DATA PORTZ[1] RI

VAR_LIST_BEGIN
	 2000000000
	 2040000000
	 2080000000
	 2120000000
	 2160000000
	 2200000000
	 2240000000
	 2280000000
	 2320000000
	 2360000000
	 2400000000
	 2440000000
	 2480000000
	 2520000000
	 2560000000
	 2600000000
	 2640000000
	 2680000000
	 2720000000
	 2760000000
	 2800000000
	 2840000000
	 2880000000
	 2920000000
	 2960000000
	 3000000000
VAR_LIST_END

BEGIN
	-0.981218276,	-0.00265454237
	-0.980383875,	 0.060550835
	-0.975443801,	 0.119473345
	-0.96705,	 0.175588161
	-0.955414461,	 0.229876146
	-0.940520993,	 0.283123162
	-0.922141909,	 0.335979971
	-0.899901906,	 0.389017916
	-0.873147239,	 0.442707215
	-0.841084679,	 0.497361516
	-0.802543386,	 0.55329399
	-0.755981842,	 0.610612576
	-0.699355404,	 0.669178765
	-0.629938947,	 0.72828899
	-0.544031188,	 0.786687902
	-0.436607077,	 0.841294655
	-0.301566227,	 0.885949891
	-0.131722998,	 0.909365872
	 0.0783219811,	 0.890725606
	 0.324596291,	 0.794120181
	 0.57121621,	 0.568511295
	 0.717118749,	 0.177897301
	 0.603969923,	-0.301357975
	 0.186736706,	-0.622438562
	-0.319253873,	-0.59122115
	-0.655032066,	-0.273811191
END
BEGIN
	-0.981218276,	-0.00265454237
	-0.980383875,	 0.060550835
	-0.975443801,	 0.119473345
	-0.96705,	 0.175588161
	-0.955414461,	 0.229876146
	-0.940520993,	 0.283123162
	-0.922141909,	 0.335979971
	-0.899901906,	 0.389017916
	-0.873147239,	 0.442707215
	-0.841084679,	 0.497361516
	-0.802543386,	 0.55329399
	-0.755981842,	 0.610612576
	-0.699355404,	 0.669178765
	-0.629938947,	 0.72828899
	-0.544031188,	 0.786687902
	-0.436607077,	 0.841294655
	-0.301566227,	 0.885949891
	-0.131722998,	 0.909365872
	 0.0783219811,	 0.890725606
	 0.324596291,	 0.794120181
	 0.57121621,	 0.568511295
	 0.717118749,	 0.177897301
	 0.603969923,	-0.301357975
	 0.186736706,	-0.622438562
	-0.319253873,	-0.59122115
	-0.655032066,	-0.273811191
END
BEGIN
	-0.936772748,	-0.00598498541
	-0.919202705,	 0.200458237
	-0.863070834,	 0.382458469
	-0.779203357,	 0.537814998
	-0.676098477,	 0.666135659
	-0.56042319,	 0.768438429
	-0.437238634,	 0.846409922
	-0.310398244,	 0.902091524
	-0.182698347,	 0.937361314
	-0.0565010513,	 0.954056309
	 0.0666453418,	 0.953855713
	 0.18545454,	 0.938197428
	 0.298913752,	 0.908343352
	 0.406068407,	 0.865290711
	 0.506405545,	 0.809913012
	 0.599150411,	 0.742567984
	 0.683239479,	 0.663520022
	 0.757720098,	 0.572597767
	 0.821135449,	 0.469224131
	 0.871356482,	 0.351849149
	 0.904399272,	 0.218151263
	 0.912774199,	 0.0637782199
	 0.880127719,	-0.117141116
	 0.767774355,	-0.326991675
	 0.483773132,	-0.526450404
	-0.0641638852,	-0.441307781
END
BEGIN
	 0.120758326,	 82.3545935
	 0.123255495,	 84.0194529
	 0.125755191,	 85.6850041
	 0.12825704,	 87.3512239
	 0.130761064,	 89.0181107
	 0.133267286,	 90.6856628
	 0.135775727,	 92.3538782
	 0.138286412,	 94.0227554
	 0.140799361,	 95.6922925
	 0.143314597,	 97.3624877
	 0.145832144,	 99.0333393
	 0.148352022,	 100.704845
	 0.150874255,	 102.377004
	 0.153398866,	 104.049814
	 0.155925877,	 105.723272
	 0.158455309,	 107.397378
	 0.160987187,	 109.072128
	 0.163521533,	 110.747522
	 0.166058369,	 112.423558
	 0.168597718,	 114.100232
	 0.171139602,	 115.777545
	 0.173684045,	 117.455492
	 0.176231069,	 119.134074
	 0.178780697,	 120.813286
	 0.181332951,	 122.493128
	 0.183887855,	 124.173598
END
BEGIN
	 14.520971360000001 ,	 0.021290707159999998 
	 14.5235553 ,	 0.02130407024 
	 14.526187200000001 ,	 0.02131738561 
	 14.52886189 ,	 0.021330595269999999 
	 14.53157936 ,	 0.021343712710000001 
	 14.53433961 ,	 0.021356750470000001 
	 14.53714265 ,	 0.02136972019 
	 14.53998846 ,	 0.021382632709999998 
	 14.54287706 ,	 0.021395498119999998 
	 14.54580844 ,	 0.02140832585 
	 14.54878261 ,	 0.021421124709999999 
	 14.55179957 ,	 0.021433902939999999 
	 14.554859329999999 ,	 0.021446668249999998 
	 14.55796187 ,	 0.02145942789 
	 14.56110722 ,	 0.021472188659999999 
	 14.56429537 ,	 0.021484956940000001 
	 14.567526320000001 ,	 0.021497738759999999 
	 14.5708001 ,	 0.02151053977 
	 14.57411669 ,	 0.02152336534 
	 14.5774761 ,	 0.021536220490000001 
	 14.580878350000001 ,	 0.021549110010000001 
	 14.58432344 ,	 0.021562038410000001 
	 14.587811370000001 ,	 0.021575009950000001 
	 14.59134216 ,	 0.021588028700000001 
	 14.59491581 ,	 0.021601098490000002 
	 14.59853234 ,	 0.02161422298 
END
BEGIN
	 50 ,	 0 
	 50 ,	 0 
	 50 ,	 0 
	 50 ,	 0 
	 50 ,	 0 
	 50 ,	 0 
	 50 ,	 0 
	 50 ,	 0 
	 50 ,	 0 
	 50 ,	 0 
	 50 ,	 0 
	 50 ,	 0 
	 50 ,	 0 
	 50 ,	 0 
	 50 ,	 0 
	 50 ,	 0 
	 50 ,	 0 
	 50 ,	 0 
	 50 ,	 0 
	 50 ,	 0 
	 50 ,	 0 
	 50 ,	 0 
	 50 ,	 0 
	 50 ,	 0 
	 50 ,	 0 
	 50 ,	 0 
END
