CITIFILE A.01.01
#Momentum: B.11.40.482 (*) built: Dec  2 2014 
#Momentum Date and Time: Fri Jun 17 15:05:48 2022

NAME PortSet1/TwoP0_Dsolver_data/first_odd_mode_is_1/most_even_mode_is_1/PMLG4/LS0

CONSTANT NBR_OF_PORTS 1

VAR freq MAG 5

DATA GAMMA_1[1] RI
DATA Z0_1[1,1] RI
DATA LAMBADAI_1[1,1] RI
DATA Zcir_1[1,1] RI
DATA Ycir_1[1,1] RI

VAR_LIST_BEGIN
	 2000000000
	 2020000000
	 2040000000
	 2060000000
	 3000000000
VAR_LIST_END

BEGIN
	 0.1207583257,	 82.35459349
	 0.1220065766,	 83.18693557
	 0.1232554949,	 84.01945286
	 0.1245050751,	 84.85214477
	 0.183887855,	 124.1735976
END
BEGIN
	 14.520971359140054 ,	 0.021290707158486473 
	 14.522257082111587 ,	 0.021297391897572883 
	 14.523555296552432 ,	 0.021304070241572319 
	 14.524865901268122 ,	 0.02131074202373669 
	 14.598532341012548 ,	 0.021614222981986283 
END
BEGIN
	 0.1207583257,	 82.35459349
	 0.1220065766,	 83.18693557
	 0.1232554949,	 84.01945286
	 0.1245050751,	 84.85214477
	 0.183887855,	 124.1735976
END
BEGIN
	 3.73359320573856e-007 ,	 2.52606160843791e-010 
	 3.87819841586243e-007 ,	 2.52655243101637e-010 
	 4.0259779412067e-007 ,	 2.52704550543226e-010 
	 4.17681024381805e-007 ,	 2.5275407959251e-010 
	 1.53152119857555e-006 ,	 2.55274633550805e-010 
END
BEGIN
	 6.2656147151067216 ,	 1.7002432352280088e-007 
	 6.3298133497884921 ,	 1.7002724874038622e-007 
	 6.3940295324499772 ,	 1.7003002929228769e-007 
	 6.458262857287127 ,	 1.700326651267363e-007 
	 9.4897953916849218 ,	 1.6999950945848991e-007 
END
