CITIFILE A.01.01
#Momentum: B.13.00.433 (*) built: Oct 24 2018 
#Momentum Date and Time: Thu Feb 24 11:18:46 2022

NAME PortSet1/TwoP0_Dsolver_data/first_odd_mode_is_2/most_even_mode_is_1/PMLG4/LS0


CONSTANT NBR_OF_PORTS 2

VAR freq MAG 12

DATA GAMMA_1[1] RI
DATA GAMMA_1[2] RI
DATA Z0_1[1,1] RI
DATA Z0_1[1,2] RI
DATA Z0_1[2,1] RI
DATA Z0_1[2,2] RI
DATA LAMBADAI_1[1,1] RI
DATA LAMBADAI_1[1,2] RI
DATA LAMBADAI_1[2,1] RI
DATA LAMBADAI_1[2,2] RI
DATA Zcir_1[1,1] RI
DATA Zcir_1[1,2] RI
DATA Zcir_1[2,1] RI
DATA Zcir_1[2,2] RI
DATA Ycir_1[1,1] RI
DATA Ycir_1[1,2] RI
DATA Ycir_1[2,1] RI
DATA Ycir_1[2,2] RI

VAR_LIST_BEGIN
	 1500000000
	 1515000000
	 1530000000
	 1545000000
	 1656576061
	 1996570503
	 2899444782
	 3402402963
	 3905361143
	 4408319323
	 5548681363
	 6000000000
VAR_LIST_END

BEGIN
	 0.03359777501,	 37.55020653
	 0.03400242225,	 37.93751366
	 0.0344076632,	 38.32498331
	 0.03481421254,	 38.7126146
	 0.03786764319,	 41.6009607
	 0.04747558822,	 50.45385893
	 0.07495686809,	 74.29679962
	 0.09135504943,	 87.76379418
	 0.1084463205,	 101.3489682
	 0.1261778764,	 115.0439146
	 0.1685266973,	 146.4663514
	 0.1860379506,	 159.0341112
END
BEGIN
	 0.05907519036,	 44.0505717
	 0.05966853777,	 44.49099705
	 0.06026108951,	 44.93142667
	 0.06085454935,	 45.37186018
	 0.06527092261,	 48.64811959
	 0.07875107302,	 58.63327896
	 0.1147336908,	 85.16661757
	 0.1349092291,	 99.96104138
	 0.1551877273,	 114.7670115
	 0.1755753127,	 129.5856366
	 0.2222310928,	 163.2358521
	 0.2408694981,	 176.5749233
END
BEGIN
	 74.5034742281362412086309632286 ,	 0.0878861445284708359126923937765 
	 74.5609383970694352683494798839 ,	 0.0879828174728804202064935680028 
	 74.6180947276810115909029264003 ,	 0.0880779663011152791352031954375 
	 74.6749489314223353630950441584 ,	 0.088173906796179160605397839845 
	 75.0888452521979132825435954146 ,	 0.0888767985358152184938163031802 
	 76.2663304512342392627033405006 ,	 0.090918670479148769314470257541 
	 78.9711228199929422544300905429 ,	 0.0958368093054764308424964269761 
	 80.3001315551758239053015131503 ,	 0.0983636627496255605551667144937 
	 81.5333132610051762867442448623 ,	 0.100775678187467340740646193353 
	 82.7009770319396295690239639953 ,	 0.103106424623937195650391629442 
	 85.1402258581300941386871272698 ,	 0.108129751540641430573863601694 
	 86.0401011962935200472202268429 ,	 0.110032904987092228221712275626 
END
BEGIN
	-20.61478117,	-0.03967131001
	-20.56209869,	-0.03958676272
	-20.50973861,	-0.03950196254
	-20.45769621,	-0.03941819382
	-20.08006455,	-0.03880669484
	-19.01816015,	-0.03705313735
	-16.6545839,	-0.03297455677
	-15.53450223,	-0.03095935189
	-14.52163525,	-0.02908707643
	-13.58422415,	-0.02732147417
	-11.69723995,	-0.02366037959
	-11.02541578,	-0.02232301891
END
BEGIN
	-20.61478117,	-0.03967131001
	-20.56209869,	-0.03958676272
	-20.50973861,	-0.03950196254
	-20.45769621,	-0.03941819382
	-20.08006455,	-0.03880669484
	-19.01816015,	-0.03705313735
	-16.6545839,	-0.03297455677
	-15.53450223,	-0.03095935189
	-14.52163525,	-0.02908707643
	-13.58422415,	-0.02732147417
	-11.69723995,	-0.02366037959
	-11.02541578,	-0.02232301891
END
BEGIN
	 74.5034742281382733608552371152 ,	 0.0878861445284733200367099925643 
	 74.5609383970706005584361264482 ,	 0.087982817472878421805049242721 
	 74.6180947276824895197933074087 ,	 0.0880779663011178742815232567409 
	 74.6749489314236143400194123387 ,	 0.0881739067961797157169101524232 
	 75.088845252199490687416982837 ,	 0.088876798535818826718646334939 
	 76.2663304512365698428766336292 ,	 0.0909186704791518363055757845359 
	 78.9711228199949175632355036214 ,	 0.0958368093054484532222758730313 
	 80.3001315551769607736787293106 ,	 0.0983636627496280446791843132814 
	 81.5333132610062989442667458206 ,	 0.100775678187469172608636824862 
	 82.7009770319411643413332058117 ,	 0.103106424623939096907321300023 
	 85.1402258581321405017661163583 ,	 0.108129751540654503449978562912 
	 86.0401011962960637902142480016 ,	 0.110032904987095420112908072952 
END
BEGIN
	 0.04633648268,	 40.80038911
	 0.04683548001,	 41.21425536
	 0.04733437635,	 41.62820499
	 0.04783438094,	 42.04223739
	 0.0515692829,	 45.12454015
	 0.06311333062,	 54.54356895
	 0.09484527946,	 79.73170859
	 0.1131321393,	 93.86241778
	 0.1318170239,	 108.0579898
	 0.1508765946,	 122.3147756
	 0.195378895,	 154.8511018
	 0.2134537243,	 167.8045173
END
BEGIN
	-0.01273870768,	-3.250182587
	-0.01283305776,	-3.276741694
	-0.01292671315,	-3.303221681
	-0.01302016841,	-3.329622793
	-0.01370163971,	-3.523579445
	-0.0156377424,	-4.089710015
	-0.01988841137,	-5.434908978
	-0.02177708983,	-6.098623599
	-0.0233707034,	-6.709021657
	-0.02469871815,	-7.270861032
	-0.02685219775,	-8.384750348
	-0.02741577374,	-8.770406056
END
BEGIN
	-0.01273870768,	-3.250182587
	-0.01283305776,	-3.276741694
	-0.01292671315,	-3.303221681
	-0.01302016841,	-3.329622793
	-0.01370163971,	-3.523579445
	-0.0156377424,	-4.089710015
	-0.01988841137,	-5.434908978
	-0.02177708983,	-6.098623599
	-0.0233707034,	-6.709021657
	-0.02469871815,	-7.270861032
	-0.02685219775,	-8.384750348
	-0.02741577374,	-8.770406056
END
BEGIN
	 0.04633648268,	 40.80038911
	 0.04683548001,	 41.21425536
	 0.04733437635,	 41.62820499
	 0.04783438094,	 42.04223739
	 0.0515692829,	 45.12454015
	 0.06311333062,	 54.54356895
	 0.09484527946,	 79.73170859
	 0.1131321393,	 93.86241778
	 0.1318170239,	 108.0579898
	 0.1508765946,	 122.3147756
	 0.195378895,	 154.8511018
	 0.2134537243,	 167.8045173
END
BEGIN
	 2.83276605413658e-07 ,	 8.75000583561992e-10 
	 2.92085935325581e-07 ,	 8.75700501271816e-10 
	 3.00243426534215e-07 ,	 8.76397081808797e-10 
	 3.09416170730259e-07 ,	 8.77090382035841e-10 
	 3.83768448497529e-07 ,	 8.82149715051773e-10 
	 6.84466630221915e-07 ,	 8.96658692636124e-10 
	 2.19032500352822e-06 ,	 9.30622421258337e-10 
	 3.61339232326841e-06 ,	 9.47626729466703e-10 
	 5.56498898416788e-06 ,	 9.63600676431167e-10 
	 8.13546030195597e-06 ,	 9.78873624877108e-10 
	 1.67289867350332e-05 ,	 1.01127287676898e-09 
	 2.13678056804826e-05 ,	 1.02339315166557e-09 
END
BEGIN
	 -1.15540743151281e-07 ,	 -3.05087570819964e-10 
	 -1.18592467844122e-07 ,	 -3.04444845793976e-10 
	 -1.2091062817604e-07 ,	 -3.03805792348806e-10 
	 -1.24049346533024e-07 ,	 -3.0317035145948e-10 
	 -1.48949384503697e-07 ,	 -2.98551626218095e-10 
	 -2.42373732009648e-07 ,	 -2.85489806103811e-10 
	 -6.28444610300431e-07 ,	 -2.56019007654394e-10 
	 -9.3454712788735e-07 ,	 -2.41855084037046e-10 
	 -1.30704994443527e-06 ,	 -2.28919987396857e-10 
	 -1.74431114692342e-06 ,	 -2.16857857302796e-10 
	 -2.97076736270073e-06 ,	 -1.92264241195975e-10 
	 -3.54455084353322e-06 ,	 -1.83400618190425e-10 
END
BEGIN
	 -1.15540743141267e-07 ,	 -3.05087570819964e-10 
	 -1.18592467898392e-07 ,	 -3.04444845793975e-10 
	 -1.20910628258814e-07 ,	 -3.03805792348807e-10 
	 -1.24049346519014e-07 ,	 -3.0317035145948e-10 
	 -1.48949384815208e-07 ,	 -2.98551626218095e-10 
	 -2.42373732110382e-07 ,	 -2.85489806103811e-10 
	 -6.28444611229411e-07 ,	 -2.56019007654393e-10 
	 -9.34547126445178e-07 ,	 -2.41855084037047e-10 
	 -1.3070499445315e-06 ,	 -2.28919987396857e-10 
	 -1.74431114696951e-06 ,	 -2.16857857302797e-10 
	 -2.97076736531911e-06 ,	 -1.92264241195975e-10 
	 -3.54455084351048e-06 ,	 -1.83400618190425e-10 
END
BEGIN
	 2.83276605405469e-07 ,	 8.75000583562016e-10 
	 2.92085935689364e-07 ,	 8.7570050127183e-10 
	 3.00243426430952e-07 ,	 8.76397081808814e-10 
	 3.09416170838292e-07 ,	 8.77090382035856e-10 
	 3.83768448264688e-07 ,	 8.82149715051792e-10 
	 6.84466630171893e-07 ,	 8.96658692636151e-10 
	 2.1903250098653e-06 ,	 9.3062242125836e-10 
	 3.61339232308483e-06 ,	 9.47626729466716e-10 
	 5.56498898401883e-06 ,	 9.6360067643118e-10 
	 8.1354603019608e-06 ,	 9.78873624877126e-10 
	 1.67289867305962e-05 ,	 1.01127287676901e-09 
	 2.13678056805182e-05 ,	 1.0233931516656e-09 
END
BEGIN
	 0.4688470953,	 2.318238351e-08
	 0.4735290084,	 2.315782017e-08
	 0.4782048897,	 2.313349055e-08
	 0.4828864721,	 2.310938998e-08
	 0.5177059273,	 2.293689847e-08
	 0.6237642221,	 2.247297e-08
	 0.9051037596,	 2.153612557e-08
	 1.06164878608109614077648075181 ,	 2.11305696661677100015778416357e-08 
	 1.2181991177640756340849748085 ,	 2.07816867402613137753085805794e-08 
	 1.37454209968300156141651768849 ,	 2.0472071799963199731333589413e-08 
	 1.72868917544945266406841710705 ,	 1.98825509166344276240951543556e-08 
	 1.86874548825946185104385222076 ,	 1.9682169431822638941994278337e-08 
END
BEGIN
	 0.000901579396056035 ,	 4.67071300958291e-09 
	 0.000907359988517209 ,	 4.64711365722336e-09 
	 0.000913932332686274 ,	 4.62374835904536e-09 
	 0.000919591839246975 ,	 4.60061284400353e-09 
	 0.000959499166169442 ,	 4.4353201495915e-09 
	 0.00105686168717456 ,	 3.99362780470265e-09 
	 0.00113145640474022 ,	 3.1186932502899e-09 
	 0.00105219122284927 ,	 2.74946050756316e-09 
	 0.00100528133977384 ,	 2.43805596188356e-09 
	 0.000766103796787876 ,	 2.16691538110076e-09 
	 -0.000117112612186165 ,	 1.66745344002469e-09 
	 -0.000599576792081113 ,	 1.50350603289497e-09 
END
BEGIN
	 0.000901579396055896 ,	 4.67071300958292e-09 
	 0.000907359988519846 ,	 4.64711365722333e-09 
	 0.000913932332688772 ,	 4.62374835904538e-09 
	 0.000919591839246781 ,	 4.60061284400351e-09 
	 0.000959499166176825 ,	 4.43532014959149e-09 
	 0.00105686168717717 ,	 3.99362780470265e-09 
	 0.00113145640478307 ,	 3.11869325028989e-09 
	 0.00105219122281575 ,	 2.74946050756316e-09 
	 0.00100528133977529 ,	 2.43805596188356e-09 
	 0.000766103796788764 ,	 2.16691538110077e-09 
	 -0.000117112612143422 ,	 1.6674534400247e-09 
	 -0.000599576792081447 ,	 1.50350603289497e-09 
END
BEGIN
	 0.4688470953,	 2.318238351e-08
	 0.4735290084,	 2.315782017e-08
	 0.4782048897,	 2.313349055e-08
	 0.4828864721,	 2.310938998e-08
	 0.5177059273,	 2.293689847e-08
	 0.6237642221,	 2.247297e-08
	 0.9051037596,	 2.153612557e-08
	 1.0616487860810897014829379259 ,	 2.11305696661674089078348723336e-08 
	 1.21819911776406208936407438159 ,	 2.07816867402610358426227627621e-08 
	 1.37454209968297602628695130988 ,	 2.04720717999628159195293648082e-08 
	 1.72868917544949507458795778803 ,	 1.98825509166339544767847740238e-08 
	 1.8687454882594061178480160379 ,	 1.96821694318220566068430410055e-08 
END
