CITIFILE A.01.01
#Momentum: B.11.40.482 (*) built: Dec  2 2014 
#Momentum Date and Time: Fri Feb 11 16:06:10 2022

NAME Momentum.SP

#  mode: MW    project: proj    reference: S_50

CONSTANT NBR_OF_PORTS 4

CONSTANT NORMALIZATION 1

VAR freq MAG 30

DATA S[1,1] RI
DATA S[1,2] RI
DATA S[1,3] RI
DATA S[1,4] RI
DATA S[2,1] RI
DATA S[2,2] RI
DATA S[2,3] RI
DATA S[2,4] RI
DATA S[3,1] RI
DATA S[3,2] RI
DATA S[3,3] RI
DATA S[3,4] RI
DATA S[4,1] RI
DATA S[4,2] RI
DATA S[4,3] RI
DATA S[4,4] RI
DATA PORTZ[1] RI
DATA PORTZ[2] RI
DATA PORTZ[3] RI
DATA PORTZ[4] RI

VAR_LIST_BEGIN
	 200000000
	 422222222.2
	 533333333.3
	 977777777.8
	 1051851852
	 1200000000
	 1255555556
	 1533333333
	 1755555555
	 2200000000
	 2533333333
	 2700000000
	 2866666667
	 2950000000
	 3033333334
	 3200000000
	 3255555556
	 3366666667
	 3700000000
	 3950000000
	 4200000000
	 4366666667
	 4644444445
	 4922222222
	 5200000000
	 5333333333
	 5611111111
	 5750000000
	 5888888889
	 6000000000
VAR_LIST_END

BEGIN
	 0.289194832,	 0.219573543
	 0.514870391,	-0.015212004
	 0.516168513,	-0.176155438
	-0.0525359117,	-0.48703723
	-0.169098083,	-0.427161298
	-0.327064661,	-0.239947377
	-0.361177757,	-0.160576027
	-0.352034329,	 0.296763228
	-0.0221705998,	 0.559693877
	 0.61110907,	 0.259585234
	 0.582091052,	-0.257783119
	 0.349990268,	-0.436862693
	 0.0401827929,	-0.396892173
	-0.0545098958,	-0.277636319
	-0.0639654535,	-0.151387506
	 0.0325991865,	-0.0523211102
	 0.0526589997,	-0.0572388487
	 0.0527060484,	-0.0766248295
	 0.00630331985,	 0.0361060424
	 0.0991882686,	 0.0269805449
	-0.0282268806,	 0.0100274034
	-0.0497130366,	 0.204492959
	 0.27038842,	 0.301092995
	 0.465420246,	 0.0950858696
	 0.434487281,	-0.206521924
	 0.301663542,	-0.317060096
	 0.00644114881,	-0.222885031
	-0.0162760507,	-0.144654757
	-0.0552613419,	-0.104784548
	-0.107781891,	-0.0363964509
END
BEGIN
	 0.610305615,	-0.638437237
	 0.0502005814,	-0.780176569
	-0.199774044,	-0.737485611
	-0.832483434,	 0.0701962675
	-0.805514516,	 0.291270083
	-0.548296166,	 0.68954427
	-0.390870637,	 0.78972815
	 0.444514783,	 0.666174504
	 0.66772716,	 0.171142688
	 0.332560787,	-0.51685834
	-0.244858231,	-0.631321409
	-0.585027907,	-0.479934905
	-0.859167082,	-0.0802576846
	-0.877006178,	 0.214063424
	-0.768229074,	 0.502088791
	-0.309356784,	 0.843970482
	-0.133483796,	 0.881265246
	 0.214760114,	 0.856598046
	 0.853423564,	 0.0966392073
	 0.583642617,	-0.574790396
	-0.105571517,	-0.773634888
	-0.476170887,	-0.503155659
	-0.56808112,	-0.00386135548
	-0.414062128,	 0.400260874
	 0.0449504541,	 0.637155346
	 0.348873205,	 0.585499201
	 0.720402106,	-0.0433186417
	 0.568401555,	-0.394616916
	 0.277146732,	-0.591134759
	 0.0140431416,	-0.615530133
END
BEGIN
	 0.187701051,	 0.111590017
	 0.256039966,	-0.0390215181
	 0.229112833,	-0.0985730201
	-0.0133360219,	-0.139409047
	-0.048479574,	-0.0981327906
	-0.0666933632,	-0.00288307719
	-0.0609178516,	 0.0266065314
	 0.00225790271,	 0.167595485
	 0.177633835,	 0.200691247
	 0.257079681,	-0.0383382354
	 0.175012482,	-0.120712177
	 0.0988820494,	-0.151578372
	-0.0192928734,	-0.0931816943
	-0.0370958947,	-0.00825414669
	 0.00792196918,	 0.0683258187
	 0.149736611,	 0.0577736361
	 0.168952885,	 0.0200161112
	 0.151110331,	-0.0514216344
	 0.0272317937,	 0.0198585072
	 0.11077491,	 0.0306929152
	 0.0179274699,	 0.00841818098
	 0.0147186728,	 0.166706694
	 0.318466133,	 0.170855365
	 0.372699164,	-0.108810543
	 0.165604801,	-0.29052783
	 0.0130211489,	-0.286982753
	-0.154081915,	-0.00212138593
	-0.0656410148,	 0.104809131
	 0.00460654609,	 0.117887089
	 0.0182373232,	 0.130961197
END
BEGIN
	-0.143636236,	-0.017772761
	-0.0908914604,	 0.15599444
	-0.00507489182,	 0.175935995
	 0.0758971969,	 0.0106151378
	 0.0615112181,	 0.0183902993
	 0.0916786923,	 0.0488086535
	 0.122329595,	 0.0457567545
	 0.181903018,	-0.182489237
	-0.0719581114,	-0.288007322
	-0.231926975,	 0.112203159
	 0.0131299255,	 0.19183077
	 0.0695760833,	 0.114027228
	 0.0295814907,	 0.0924314016
	 0.032604107,	 0.137181974
	 0.0907660537,	 0.178178615
	 0.257430006,	 0.111664063
	 0.290619265,	 0.0555200133
	 0.312729871,	-0.069852375
	 0.0691525071,	-0.405598183
	-0.312256332,	-0.338693628
	-0.532936198,	 0.0348240388
	-0.424793113,	 0.399047723
	 0.167227959,	 0.510248325
	 0.432537258,	 0.13845472
	 0.359960167,	-0.176195182
	 0.295902406,	-0.280385533
	 0.0175596549,	-0.539147209
	-0.279359814,	-0.538416955
	-0.550965738,	-0.352070314
	-0.677393876,	-0.0983372173
END
BEGIN
	 0.610305615,	-0.638437237
	 0.0502005814,	-0.780176569
	-0.199774044,	-0.737485611
	-0.832483434,	 0.0701962675
	-0.805514516,	 0.291270083
	-0.548296166,	 0.68954427
	-0.390870637,	 0.78972815
	 0.444514783,	 0.666174504
	 0.66772716,	 0.171142688
	 0.332560787,	-0.51685834
	-0.244858231,	-0.631321409
	-0.585027907,	-0.479934905
	-0.859167082,	-0.0802576845
	-0.877006178,	 0.214063424
	-0.768229074,	 0.502088791
	-0.309356784,	 0.843970482
	-0.133483796,	 0.881265246
	 0.214760114,	 0.856598046
	 0.853423564,	 0.0966392073
	 0.583642617,	-0.574790396
	-0.105571516,	-0.773634888
	-0.476170887,	-0.503155659
	-0.56808112,	-0.00386135548
	-0.414062128,	 0.400260874
	 0.0449504541,	 0.637155346
	 0.348873205,	 0.585499201
	 0.720402107,	-0.0433186417
	 0.568401554,	-0.394616916
	 0.277146732,	-0.591134759
	 0.0140431416,	-0.615530133
END
BEGIN
	 0.29087764,	 0.217705632
	 0.515020378,	-0.0165872685
	 0.516046176,	-0.177031622
	-0.051564239,	-0.487186969
	-0.167965383,	-0.427622352
	-0.326131732,	-0.24113832
	-0.360491287,	-0.161955113
	-0.352604117,	 0.295809841
	-0.0225944911,	 0.559495978
	 0.611132221,	 0.259340178
	 0.581988468,	-0.257906358
	 0.349975849,	-0.436817616
	 0.0404390708,	-0.39677297
	-0.0540836728,	-0.27758872
	-0.0634162364,	-0.151495994
	 0.0331287254,	-0.0528149354
	 0.0531166577,	-0.0578341484
	 0.0529771011,	-0.0773351727
	 0.00623171514,	 0.0354265096
	 0.0988316642,	 0.026201264
	-0.0292523563,	 0.00959473254
	-0.0508182848,	 0.204851083
	 0.270395477,	 0.302035218
	 0.466181546,	 0.0954564558
	 0.435335989,	-0.206823334
	 0.30250369,	-0.317642866
	 0.00684153039,	-0.224535891
	-0.016836146,	-0.146617355
	-0.0569152475,	-0.106347375
	-0.110073079,	-0.0371473093
END
BEGIN
	-0.143435588,	-0.0172205224
	-0.0904825711,	 0.155818571
	-0.00489453046,	 0.175576434
	 0.0756875767,	 0.0107324856
	 0.0613794971,	 0.0185440559
	 0.0916424397,	 0.0489552873
	 0.122313496,	 0.0459067504
	 0.182079195,	-0.182445856
	-0.0719262777,	-0.288130861
	-0.231924553,	 0.112251821
	 0.0131605732,	 0.191802912
	 0.0695708432,	 0.11400536
	 0.0296012481,	 0.0924350886
	 0.032648619,	 0.137159804
	 0.0907984371,	 0.178111006
	 0.257358405,	 0.111592292
	 0.290525682,	 0.0554803136
	 0.312643596,	-0.0698221875
	 0.0691478476,	-0.405594079
	-0.31228662,	-0.338639145
	-0.532898965,	 0.0348774398
	-0.424746969,	 0.39908804
	 0.16733003,	 0.510237937
	 0.432586503,	 0.138346811
	 0.359919747,	-0.176308308
	 0.295827397,	-0.280495543
	 0.0173300779,	-0.539187758
	-0.279623579,	-0.538305229
	-0.551146916,	-0.351797026
	-0.677433681,	-0.0979885767
END
BEGIN
	 0.187592879,	 0.111639911
	 0.25601831,	-0.038938171
	 0.229121552,	-0.0985196208
	-0.0134004883,	-0.139407301
	-0.0485606892,	-0.0981155646
	-0.0667948172,	-0.00280456304
	-0.0610127184,	 0.0267180469
	 0.00236964051,	 0.167782907
	 0.177852731,	 0.200701654
	 0.257152797,	-0.0385335713
	 0.174881635,	-0.121039341
	 0.0985150565,	-0.151885821
	-0.0199260283,	-0.0932574961
	-0.0377941561,	-0.00811529688
	 0.00724399727,	 0.0687083296
	 0.149360914,	 0.0585692558
	 0.168734238,	 0.0209048703
	 0.151271545,	-0.0504435718
	 0.0283927625,	 0.0199974277
	 0.111585541,	 0.0297737887
	 0.0175970914,	 0.00719490615
	 0.0137849176,	 0.166012883
	 0.317496927,	 0.171002376
	 0.371954156,	-0.10797293
	 0.16577622,	-0.289076782
	 0.0139574996,	-0.285581522
	-0.152048257,	-0.00246664398
	-0.064114896,	 0.103365235
	 0.00509380891,	 0.115864182
	 0.0177965558,	 0.128978197
END
BEGIN
	 0.187701056,	 0.111590019
	 0.256039973,	-0.0390215181
	 0.229112841,	-0.0985730184
	-0.0133359561,	-0.139408977
	-0.0484793844,	-0.0981326816
	-0.0666933297,	-0.00288332809
	-0.0609178801,	 0.0266065517
	 0.00225804439,	 0.167595392
	 0.177633865,	 0.200691101
	 0.25707991,	-0.03833796
	 0.175012612,	-0.120712242
	 0.0988822479,	-0.151578604
	-0.0192928442,	-0.0931816466
	-0.0370951794,	-0.00825346719
	 0.00792129389,	 0.0683255973
	 0.149736673,	 0.0577734726
	 0.168952845,	 0.020016116
	 0.151110434,	-0.0514217007
	 0.0272319072,	 0.0198584744
	 0.110774921,	 0.0306929181
	 0.0179274779,	 0.00841820344
	 0.0147186509,	 0.166706665
	 0.318466193,	 0.170855309
	 0.37269916,	-0.108810538
	 0.165604814,	-0.290527829
	 0.013021154,	-0.286982736
	-0.154081858,	-0.00212135663
	-0.0656411026,	 0.104809131
	 0.0046065653,	 0.117887066
	 0.0182373175,	 0.130961195
END
BEGIN
	-0.143435593,	-0.0172205237
	-0.0904825719,	 0.155818576
	-0.00489452438,	 0.175576437
	 0.0756875171,	 0.0107324
	 0.0613793059,	 0.0185439426
	 0.091642293,	 0.0489556244
	 0.122313584,	 0.0459068561
	 0.182079251,	-0.182445767
	-0.0719261443,	-0.288130837
	-0.231924659,	 0.112251511
	 0.0131606349,	 0.191802801
	 0.0695710279,	 0.114005094
	 0.0296012825,	 0.0924351407
	 0.0326494894,	 0.137160583
	 0.0907975415,	 0.17811072
	 0.257358629,	 0.111591945
	 0.290525541,	 0.0554802618
	 0.312643452,	-0.0698216231
	 0.0691477238,	-0.405594046
	-0.312286632,	-0.33863915
	-0.532898826,	 0.0348772524
	-0.424747,	 0.399087962
	 0.167330108,	 0.510237887
	 0.432586498,	 0.138346815
	 0.359919741,	-0.176308297
	 0.295827387,	-0.280495558
	 0.0173300209,	-0.539187793
	-0.279623476,	-0.538305222
	-0.551146951,	-0.351796987
	-0.677433659,	-0.0979885752
END
BEGIN
	 0.28958403,	 0.218050171
	 0.510646502,	-0.0126342062
	 0.513135987,	-0.170994363
	-0.0439380843,	-0.483488673
	-0.159414542,	-0.426016703
	-0.317189058,	-0.244143454
	-0.351839619,	-0.166846847
	-0.353600988,	 0.281805081
	-0.0365250638,	 0.551871781
	 0.603866734,	 0.275548736
	 0.598830356,	-0.240354426
	 0.381079848,	-0.433881056
	 0.068436918,	-0.424794288
	-0.0422898252,	-0.317994533
	-0.0727871973,	-0.192385816
	 0.000471089197,	-0.0674056161
	 0.0203622322,	-0.0628599555
	 0.0262469895,	-0.0684471618
	-0.0014493476,	 0.0566588981
	 0.113431376,	 0.0564691564
	 0.0208260789,	 0.0051233538
	-0.0235348235,	 0.156526311
	 0.232711499,	 0.27468286
	 0.432498806,	 0.11584464
	 0.439358619,	-0.168658219
	 0.327423183,	-0.288250977
	 0.0328589337,	-0.238951461
	-0.00624784713,	-0.163593071
	-0.0493296543,	-0.119348017
	-0.100800383,	-0.0543426876
END
BEGIN
	 0.611697319,	-0.637827121
	 0.0562080599,	-0.78282612
	-0.194102999,	-0.742540229
	-0.83615688,	 0.057498813
	-0.812760409,	 0.278359321
	-0.563822524,	 0.680214716
	-0.409083947,	 0.783472754
	 0.42891363,	 0.681710145
	 0.667928845,	 0.190640045
	 0.346410174,	-0.507494567
	-0.219204373,	-0.632026862
	-0.552482447,	-0.49771417
	-0.838139295,	-0.129501633
	-0.876911727,	 0.153165784
	-0.794403958,	 0.442374211
	-0.369699685,	 0.818262937
	-0.197303875,	 0.869538446
	 0.152331666,	 0.871127308
	 0.841692069,	 0.163350158
	 0.630702495,	-0.517283298
	-0.0180002348,	-0.781180972
	-0.417605418,	-0.569601452
	-0.592084722,	-0.0668212647
	-0.462693912,	 0.37607611
	-0.0121433213,	 0.64667205
	 0.291029147,	 0.618422044
	 0.715349151,	 0.0463955053
	 0.613925331,	-0.310896989
	 0.361303373,	-0.541066512
	 0.112598132,	-0.604761975
END
BEGIN
	-0.143636241,	-0.0177727623
	-0.0908914612,	 0.155994445
	-0.00507488575,	 0.175935998
	 0.0758971373,	 0.0106150522
	 0.061511027,	 0.0183901861
	 0.0916785452,	 0.0488089901
	 0.122329683,	 0.0457568606
	 0.181903074,	-0.182489148
	-0.071957978,	-0.288007299
	-0.231927081,	 0.112202848
	 0.0131299871,	 0.191830659
	 0.0695762679,	 0.114026962
	 0.0295815252,	 0.0924314537
	 0.0326049778,	 0.137182753
	 0.0907651577,	 0.17817833
	 0.25743023,	 0.111663716
	 0.290619125,	 0.0555199616
	 0.312729727,	-0.0698518105
	 0.0691523832,	-0.405598151
	-0.312256344,	-0.338693633
	-0.53293606,	 0.0348238514
	-0.424793143,	 0.399047645
	 0.167228037,	 0.510248275
	 0.432537253,	 0.138454724
	 0.359960161,	-0.176195171
	 0.295902396,	-0.280385549
	 0.017559598,	-0.539147244
	-0.279359711,	-0.538416948
	-0.550965773,	-0.352070276
	-0.677393853,	-0.0983372158
END
BEGIN
	 0.187592883,	 0.111639913
	 0.256018318,	-0.038938171
	 0.22912156,	-0.0985196191
	-0.0134004224,	-0.139407231
	-0.0485604996,	-0.0981154556
	-0.0667947837,	-0.00280481404
	-0.061012747,	 0.0267180672
	 0.00236978217,	 0.167782814
	 0.177852762,	 0.200701509
	 0.257153026,	-0.038533296
	 0.174881764,	-0.121039406
	 0.098515255,	-0.151886052
	-0.0199259991,	-0.0932574484
	-0.0377934409,	-0.00811461752
	 0.00724332213,	 0.0687081083
	 0.149360976,	 0.0585690924
	 0.168734197,	 0.0209048751
	 0.151271648,	-0.0504436381
	 0.028392876,	 0.019997395
	 0.111585552,	 0.0297737916
	 0.0175970993,	 0.00719492843
	 0.0137848956,	 0.166012854
	 0.317496987,	 0.171002319
	 0.371954152,	-0.107972924
	 0.165776234,	-0.289076781
	 0.0139575047,	-0.285581506
	-0.1520482,	-0.00246661462
	-0.0641149837,	 0.103365236
	 0.00509382814,	 0.115864159
	 0.0177965502,	 0.128978195
END
BEGIN
	 0.611697319,	-0.637827121
	 0.0562080599,	-0.78282612
	-0.194102999,	-0.742540229
	-0.83615688,	 0.057498813
	-0.812760409,	 0.278359321
	-0.563822524,	 0.680214716
	-0.409083947,	 0.783472754
	 0.42891363,	 0.681710144
	 0.667928845,	 0.190640045
	 0.346410174,	-0.507494567
	-0.219204373,	-0.632026862
	-0.552482447,	-0.49771417
	-0.838139295,	-0.129501633
	-0.876911728,	 0.153165783
	-0.794403957,	 0.442374211
	-0.369699685,	 0.818262938
	-0.197303875,	 0.869538446
	 0.152331666,	 0.871127308
	 0.841692068,	 0.163350158
	 0.630702495,	-0.517283298
	-0.0180002349,	-0.781180972
	-0.417605418,	-0.569601452
	-0.592084723,	-0.0668212647
	-0.462693912,	 0.37607611
	-0.0121433213,	 0.64667205
	 0.291029147,	 0.618422043
	 0.715349151,	 0.0463955053
	 0.613925331,	-0.31089699
	 0.361303373,	-0.541066511
	 0.112598132,	-0.604761975
END
BEGIN
	 0.288380842,	 0.219445893
	 0.510525207,	-0.0115506083
	 0.513239452,	-0.170212055
	-0.0443740603,	-0.48338505
	-0.16000444,	-0.425747536
	-0.317762363,	-0.243358079
	-0.352269386,	-0.165886808
	-0.352945936,	 0.282606277
	-0.0358809383,	 0.551900502
	 0.60384687,	 0.275469238
	 0.598803379,	-0.240235974
	 0.381089291,	-0.433773967
	 0.0683857041,	-0.424679925
	-0.0423701193,	-0.317803656
	-0.0728184685,	-0.192092084
	 0.000689755693,	-0.0670328756
	 0.0206750301,	-0.0625200543
	 0.0267220526,	-0.0682403972
	-0.00105334919,	 0.0560793067
	 0.113062464,	 0.0557709308
	 0.0198658269,	 0.00504078888
	-0.0244107685,	 0.157148469
	 0.232834908,	 0.275722174
	 0.433294027,	 0.11641098
	 0.440364968,	-0.168709655
	 0.328493648,	-0.288644261
	 0.0334457595,	-0.240580418
	-0.00664107259,	-0.165555957
	-0.0508078124,	-0.121009948
	-0.102997052,	-0.0552902637
END
BEGIN
	 50 ,	 0 
	 50 ,	 0 
	 50 ,	 0 
	 50 ,	 0 
	 50 ,	 0 
	 50 ,	 0 
	 50 ,	 0 
	 50 ,	 0 
	 50 ,	 0 
	 50 ,	 0 
	 50 ,	 0 
	 50 ,	 0 
	 50 ,	 0 
	 50 ,	 0 
	 50 ,	 0 
	 50 ,	 0 
	 50 ,	 0 
	 50 ,	 0 
	 50 ,	 0 
	 50 ,	 0 
	 50 ,	 0 
	 50 ,	 0 
	 50 ,	 0 
	 50 ,	 0 
	 50 ,	 0 
	 50 ,	 0 
	 50 ,	 0 
	 50 ,	 0 
	 50 ,	 0 
	 50 ,	 0 
END
BEGIN
	 50 ,	 0 
	 50 ,	 0 
	 50 ,	 0 
	 50 ,	 0 
	 50 ,	 0 
	 50 ,	 0 
	 50 ,	 0 
	 50 ,	 0 
	 50 ,	 0 
	 50 ,	 0 
	 50 ,	 0 
	 50 ,	 0 
	 50 ,	 0 
	 50 ,	 0 
	 50 ,	 0 
	 50 ,	 0 
	 50 ,	 0 
	 50 ,	 0 
	 50 ,	 0 
	 50 ,	 0 
	 50 ,	 0 
	 50 ,	 0 
	 50 ,	 0 
	 50 ,	 0 
	 50 ,	 0 
	 50 ,	 0 
	 50 ,	 0 
	 50 ,	 0 
	 50 ,	 0 
	 50 ,	 0 
END
BEGIN
	 50 ,	 0 
	 50 ,	 0 
	 50 ,	 0 
	 50 ,	 0 
	 50 ,	 0 
	 50 ,	 0 
	 50 ,	 0 
	 50 ,	 0 
	 50 ,	 0 
	 50 ,	 0 
	 50 ,	 0 
	 50 ,	 0 
	 50 ,	 0 
	 50 ,	 0 
	 50 ,	 0 
	 50 ,	 0 
	 50 ,	 0 
	 50 ,	 0 
	 50 ,	 0 
	 50 ,	 0 
	 50 ,	 0 
	 50 ,	 0 
	 50 ,	 0 
	 50 ,	 0 
	 50 ,	 0 
	 50 ,	 0 
	 50 ,	 0 
	 50 ,	 0 
	 50 ,	 0 
	 50 ,	 0 
END
BEGIN
	 50 ,	 0 
	 50 ,	 0 
	 50 ,	 0 
	 50 ,	 0 
	 50 ,	 0 
	 50 ,	 0 
	 50 ,	 0 
	 50 ,	 0 
	 50 ,	 0 
	 50 ,	 0 
	 50 ,	 0 
	 50 ,	 0 
	 50 ,	 0 
	 50 ,	 0 
	 50 ,	 0 
	 50 ,	 0 
	 50 ,	 0 
	 50 ,	 0 
	 50 ,	 0 
	 50 ,	 0 
	 50 ,	 0 
	 50 ,	 0 
	 50 ,	 0 
	 50 ,	 0 
	 50 ,	 0 
	 50 ,	 0 
	 50 ,	 0 
	 50 ,	 0 
	 50 ,	 0 
	 50 ,	 0 
END
