CITIFILE A.01.01
#Momentum: B.11.40.482 (*) built: Dec  2 2014 
#Momentum Date and Time: Fri Feb 11 16:05:49 2022

NAME PortSet1/TwoP0_Dsolver_data/first_odd_mode_is_1/most_even_mode_is_2/PMLG4/LS0

CONSTANT NBR_OF_PORTS 4

VAR freq MAG 20

DATA GAMMA_1[1] RI
DATA GAMMA_1[2] RI
DATA Z0_1[1,1] RI
DATA Z0_1[1,2] RI
DATA Z0_1[2,1] RI
DATA Z0_1[2,2] RI
DATA LAMBADAI_1[1,1] RI
DATA LAMBADAI_1[1,2] RI
DATA LAMBADAI_1[2,1] RI
DATA LAMBADAI_1[2,2] RI
DATA Zcir_1[1,1] RI
DATA Zcir_1[1,2] RI
DATA Zcir_1[2,1] RI
DATA Zcir_1[2,2] RI
DATA Ycir_1[1,1] RI
DATA Ycir_1[1,2] RI
DATA Ycir_1[2,1] RI
DATA Ycir_1[2,2] RI

VAR_LIST_BEGIN
	 200000000
	 202000000
	 204000000
	 206000000
	 225178347.3
	 289180513.4
	 396317523.8
	 507133827.6
	 623001319.8
	 765270491.1
	 955918188.9
	 1205278356
	 1515125965
	 1895472432
	 2368474330
	 2963391338
	 3710713314
	 4642698570
	 5811456702
	 6000000000
VAR_LIST_END

BEGIN
	 0.04127462444,	 6.58823879
	 0.04152517769,	 6.653951186
	 0.04177479014,	 6.719662568
	 0.04202366897,	 6.785373346
	 0.04437032138,	 7.415447001
	 0.05176492068,	 9.517719862
	 0.06306984377,	 13.03585894
	 0.0738197656,	 16.6740392
	 0.08435590712,	 20.47758089
	 0.09658945663,	 25.14749187
	 0.1120948731,	 31.40536082
	 0.1312789136,	 39.59113903
	 0.1538963141,	 49.76489031
	 0.1803642509,	 62.25885711
	 0.2118911299,	 77.80777471
	 0.2500440041,	 97.38742124
	 0.2964071224,	 122.0287256
	 0.3527080033,	 152.8471645
	 0.4219175676,	 191.6618948
	 0.4330010384,	 197.9431458
END
BEGIN
	 0.02746265786,	 7.16231794
	 0.02764926409,	 7.233863437
	 0.0278355847,	 7.305408571
	 0.02802130539,	 7.376953892
	 0.02978111015,	 8.063011874
	 0.03542347348,	 10.35256508
	 0.04430329916,	 14.18567996
	 0.05299570707,	 18.1515984
	 0.06172269797,	 22.30002226
	 0.07207801892,	 27.39666293
	 0.0855146714,	 34.23237906
	 0.1025639655,	 43.18506158
	 0.1231954845,	 54.33039323
	 0.1479818093,	 68.04664932
	 0.1782994665,	 85.16248269
	 0.2159888442,	 106.7867017
	 0.2630156101,	 134.1084957
	 0.3215400168,	 168.4292213
	 0.3950772286,	 211.8476279
	 0.40696485,	 218.8897508
END
BEGIN
	 70.7399248487286911313276505098 ,	 -0.154405573760835634899990509439 
	 70.7386654971257939905626699328 ,	 -0.153214250396564832801260536144 
	 70.737422080759330356158898212 ,	 -0.152040774978430520691929928034 
	 70.7361990074125230876234127209 ,	 -0.150883580578858117471341415694 
	 70.725301689822572370758280158 ,	 -0.140569823157598694507441905444 
	 70.697064137465574162888515275 ,	 -0.113826506659820136935223899854 
	 70.666027705178095175142516382 ,	 -0.0843895033970698399405918621596 
	 70.6449646347287085745847434737 ,	 -0.0642689710194035840329362940793 
	 70.6295069182347958758327877149 ,	 -0.0492020484864279725178981550471 
	 70.6161481981227581172788632102 ,	 -0.0355512646812711774479964788043 
	 70.6045592878707992667841608636 ,	 -0.022208785334036463404716599257 
	 70.5968300783082867155826534145 ,	 -0.00970277192008303299153304521951 
	 70.5958576882833739318812149577 ,	 0.00141209469510951315766866809298 
	 70.6052221093804206475397222675 ,	 0.0112659612814281495651869136054 
	 70.6310443769953479886680725031 ,	 0.0202052462870750404455577609042 
	 70.683997984755748689167376142 ,	 0.0284712162654481119872240668656 
	 70.7808584666820905795248108916 ,	 0.0361742249994677703139878133243 
	 70.9461322992448373270235606469 ,	 0.0434079290645617496546826430404 
	 71.217989481251592565058672335 ,	 0.0503886520741708213155796158844 
	 71.2681687685638820539679727517 ,	 0.0513695139398264305485852787569 
END
BEGIN
	 16.4667497459115637070681259502 ,	 0.0536701814273641344965604105255 
	 16.4668929488236344127471966203 ,	 0.0535405883108984181895095844084 
	 16.4670331975425696668935415801 ,	 0.0534114626432832112490345366496 
	 16.4671721747194368390410090797 ,	 0.0532854882349983877132260090548 
	 16.4684086239477949220599839464 ,	 0.0521605194649529535499965504641 
	 16.4716126319738442873585881898 ,	 0.049225699709242363988348500925 
	 16.4752781073404079847932734992 ,	 0.0459759219047850137274124904252 
	 16.4781756778612731295652338304 ,	 0.0437505897415207747891408018859 
	 16.4809847229394819123626803048 ,	 0.0420874402019650040163156745621 
	 16.4846632503351067100538784871 ,	 0.0406010002612140902256143704108 
	 16.4905689011646856556581042241 ,	 0.039174262251103507403993120306 
	 16.5006614574318497545846184948 ,	 0.0378836887221848522822043037195 
	 16.5176492533537278006861015456 ,	 0.0368047164911137550391551087614 
	 16.5458915344679908798752876464 ,	 0.035938143639892339287200684339 
	 16.5928014347188259591803216608 ,	 0.035268399768818056716490616509 
	 16.670249952235703716496573179 ,	 0.0347977391644784250779309786594 
	 16.795247694119005643642594805 ,	 0.0345477356603915222721390421157 
	 16.9901697615441555910820170538 ,	 0.0345369755926452429162232249382 
	 17.2865266355347451110446854727 ,	 0.0347436289500787434669781816865 
	 17.3388879987044610686552914558 ,	 0.034791933092230914459364043978 
END
BEGIN
	 16.4667497459115530489270895487 ,	 0.0536701814273509852926125063277 
	 16.4668929488236166491788026178 ,	 0.0535405883108853522522885270973 
	 16.4670331975425874304619355826 ,	 0.0534114626432713665571405670107 
	 16.4671721747194190754726150772 ,	 0.0532854882349684880193940728077 
	 16.4684086239478055802010203479 ,	 0.0521605194649279527152607727203 
	 16.4716126319738904726364125963 ,	 0.0492256997092899092893780732538 
	 16.4752781073403298250923398882 ,	 0.045975921904784278204658676259 
	 16.4781756778613122094157006359 ,	 0.0437505897415204902944907416895 
	 16.4809847229394428325122134993 ,	 0.0420874402019533605523449182328 
	 16.4846632503351138154812360881 ,	 0.0406010002612552586831462519967 
	 16.4905689011646394703802798176 ,	 0.0391742622510977134275833577703 
	 16.5006614574318604127256548963 ,	 0.0378836887221743537357276920829 
	 16.5176492533536602991262043361 ,	 0.0368047164910920709957053986727 
	 16.5458915344679482473111420404 ,	 0.0359381436398735765180845191935 
	 16.5928014347188401700350368628 ,	 0.0352683997687988637359524091153 
	 16.670249952235703716496573179 ,	 0.0347977391644936837056256706546 
	 16.7952476941190873560572072165 ,	 0.0345477356603856172734268170643 
	 16.9901697615440667732400470413 ,	 0.0345369755926372978827032511617 
	 17.2865266355347699800404370762 ,	 0.0347436289501050488137678939893 
	 17.3388879987044184360911458498 ,	 0.0347919330922388941873535372906 
END
BEGIN
	 70.7399248487292027220973977819 ,	 -0.154405573760839215369244925569 
	 70.7386654971258508339815307409 ,	 -0.153214250396557644107176088255 
	 70.7374220807595435189796262421 ,	 -0.152040774978413534279653163139 
	 70.7361990074126225636064191349 ,	 -0.150883580578820869488865241692 
	 70.7253016898228281661431537941 ,	 -0.140569823157573853267265917566 
	 70.6970641374658868016922497191 ,	 -0.113826506659878132210472756469 
	 70.6660277051785072899292572401 ,	 -0.0843895033970696040181991293139 
	 70.6449646347291917436450603418 ,	 -0.0642689710194117164165916733509 
	 70.629506918235080092927091755 ,	 -0.0492020484864222965026847589343 
	 70.6161481981230565452278824523 ,	 -0.0355512646813174529314416361103 
	 70.6045592878712966466991929337 ,	 -0.0222087853340357278819627850908 
	 70.5968300783085851435316726565 ,	 -0.00970277192007992783651104673481 
	 70.5958576882834734078642213717 ,	 0.00141209469511968362456788561587 
	 70.6052221093806764429245959036 ,	 0.0112659612814063996022451163981 
	 70.631044376995063771573768463 ,	 0.0202052462870972622532850238031 
	 70.6839979847561608039541170001 ,	 0.0284712162654491146573931814601 
	 70.7808584666828437548247165978 ,	 0.0361742249994850897931719657663 
	 70.946132299244979435570712667 ,	 0.0434079290645893803302080016238 
	 71.2179894812520615232642740011 ,	 0.0503886520741482490937102056705 
	 71.2681687685641804819169919938 ,	 0.0513695139398200259495119723852 
END
BEGIN
	 0.03436864115,	 6.875278365
	 0.03458722089,	 6.943907312
	 0.03480518742,	 7.012535569
	 0.03502248718,	 7.081163619
	 0.03707571577,	 7.739229437
	 0.04359419708,	 9.93514247
	 0.05368657147,	 13.61076945
	 0.06340773633,	 17.4128188
	 0.07303930254,	 21.38880158
	 0.08433373777,	 26.2720774
	 0.09880477224,	 32.81886994
	 0.1169214396,	 41.38810031
	 0.1385458993,	 52.04764177
	 0.1641730301,	 65.15275321
	 0.1950952982,	 81.4851287
	 0.2330164241,	 102.0870615
	 0.2797113662,	 128.0686106
	 0.3371240101,	 160.6381929
	 0.4084973981,	 201.7547613
	 0.4199829442,	 208.4164483
END
BEGIN
	-0.006905983289,	 0.2870395753
	-0.0069379568,	 0.2899561258
	-0.006969602721,	 0.2928730014
	-0.00700118179,	 0.2957902731
	-0.007294605617,	 0.3237824366
	-0.008170723602,	 0.4174226083
	-0.009383272306,	 0.5749105101
	-0.01041202926,	 0.7387796001
	-0.01131660458,	 0.9112206881
	-0.01225571885,	 1.124585532
	-0.01329010084,	 1.41350912
	-0.01435747405,	 1.796961275
	-0.01535041481,	 2.282751461
	-0.01619122081,	 2.893896105
	-0.01679583174,	 3.677353992
	-0.01702757995,	 4.69964024
	-0.01669575616,	 6.039885066
	-0.01558399323,	 7.7910284
	-0.01342016952,	 10.09286654
	-0.01301809421,	 10.4733025
END
BEGIN
	-0.006905983289,	 0.2870395753
	-0.0069379568,	 0.2899561258
	-0.006969602721,	 0.2928730014
	-0.00700118179,	 0.2957902731
	-0.007294605617,	 0.3237824366
	-0.008170723602,	 0.4174226083
	-0.009383272306,	 0.5749105101
	-0.01041202926,	 0.7387796001
	-0.01131660458,	 0.9112206881
	-0.01225571885,	 1.124585532
	-0.01329010084,	 1.41350912
	-0.01435747405,	 1.796961275
	-0.01535041481,	 2.282751461
	-0.01619122081,	 2.893896105
	-0.01679583174,	 3.677353992
	-0.01702757995,	 4.69964024
	-0.01669575616,	 6.039885066
	-0.01558399323,	 7.7910284
	-0.01342016952,	 10.09286654
	-0.01301809421,	 10.4733025
END
BEGIN
	 0.03436864115,	 6.875278365
	 0.03458722089,	 6.943907312
	 0.03480518742,	 7.012535569
	 0.03502248718,	 7.081163619
	 0.03707571577,	 7.739229437
	 0.04359419708,	 9.93514247
	 0.05368657147,	 13.61076945
	 0.06340773633,	 17.4128188
	 0.07303930254,	 21.38880158
	 0.08433373777,	 26.2720774
	 0.09880477224,	 32.81886994
	 0.1169214396,	 41.38810031
	 0.1385458993,	 52.04764177
	 0.1641730301,	 65.15275321
	 0.1950952982,	 81.4851287
	 0.2330164241,	 102.0870615
	 0.2797113662,	 128.0686106
	 0.3371240101,	 160.6381929
	 0.4084973981,	 201.7547613
	 0.4199829442,	 208.4164483
END
BEGIN
	 0.00892864533448872 ,	 1.03731256448863e-09 
	 0.00897402675956073 ,	 1.03727776335486e-09 
	 0.00901920690302349 ,	 1.03724342813322e-09 
	 0.00906414309606043 ,	 1.03720968923092e-09 
	 0.00948443345467992 ,	 1.03691052310898e-09 
	 0.0107709167,	 1.036151575e-09
	 0.01263874427,	 1.035364557e-09
	 0.01431965254,	 1.034885786e-09
	 0.01588999342,	 1.034589455e-09
	 0.01762968744,	 1.034404294e-09
	 0.01972339052,	 1.03435976e-09
	 0.02216672641,	 1.034540722e-09
	 0.02487110794,	 1.035034815e-09
	 0.02783307733,	 1.03595024e-09
	 0.0311229843,	 1.037469025e-09
	 0.03481694058,	 1.039878125e-09
	 0.03895718394,	 1.043576128e-09
	 0.04356118209,	 1.049088902e-09
	 0.0486914877,	 1.057207582e-09
	 0.04946523999,	 1.05862917e-09
END
BEGIN
	 -0.000656347018859708 ,	 2.82040123734936e-10 
	 -0.000659870389991916 ,	 2.82043950671428e-10 
	 -0.000663325068908372 ,	 2.8204771877486e-10 
	 -0.000666813853262541 ,	 2.82051482740024e-10 
	 -0.000699448085766345 ,	 2.8208617289352e-10 
	 -0.000799325068086338 ,	 2.82189551717414e-10 
	 -0.000944518089896788 ,	 2.82345471299357e-10 
	 -0.00107518305749896 ,	 2.8250620873373e-10 
	 -0.00119685747444754 ,	 2.82684789350752e-10 
	 -0.00133233373111036 ,	 2.82925366160979e-10 
	 -0.00149512106181077 ,	 2.83289841876419e-10 
	 -0.0016850499040019 ,	 2.83842507815211e-10 
	 -0.00189537492365545 ,	 2.84647937840871e-10 
	 -0.00212583637878268 ,	 2.85808615662874e-10 
	 -0.00238176056564239 ,	 2.87497618203405e-10 
	 -0.00266858977817749 ,	 2.89970885794329e-10 
	 -0.00299122938542947 ,	 2.93557193163485e-10 
	 -0.00335513076158767 ,	 2.98648838629765e-10 
	 -0.00374940533643853 ,	 3.05787578348571e-10 
	 -0.0038089790894034 ,	 3.06999973325919e-10 
END
BEGIN
	 -0.000656347018859462 ,	 2.82040123734936e-10 
	 -0.000659870389991685 ,	 2.82043950671428e-10 
	 -0.000663325068908163 ,	 2.8204771877486e-10 
	 -0.000666813853262005 ,	 2.82051482740024e-10 
	 -0.000699448085765848 ,	 2.8208617289352e-10 
	 -0.000799325068087517 ,	 2.82189551717415e-10 
	 -0.000944518089896769 ,	 2.82345471299355e-10 
	 -0.00107518305749891 ,	 2.82506208733731e-10 
	 -0.0011968574744469 ,	 2.82684789350752e-10 
	 -0.00133233373111309 ,	 2.82925366160979e-10 
	 -0.00149512106181027 ,	 2.83289841876419e-10 
	 -0.00168504990400075 ,	 2.83842507815212e-10 
	 -0.00189537492365252 ,	 2.8464793784087e-10 
	 -0.00212583637877928 ,	 2.85808615662874e-10 
	 -0.00238176056563848 ,	 2.87497618203406e-10 
	 -0.00266858977818161 ,	 2.89970885794329e-10 
	 -0.00299122938542761 ,	 2.93557193163486e-10 
	 -0.00335513076158488 ,	 2.98648838629764e-10 
	 -0.00374940533645195 ,	 3.05787578348571e-10 
	 -0.00380897908940765 ,	 3.06999973325918e-10 
END
BEGIN
	 0.00892864533448882 ,	 1.03731256448864e-09 
	 0.0089740267595606 ,	 1.03727776335486e-09 
	 0.0090192069030232 ,	 1.03724342813322e-09 
	 0.00906414309605976 ,	 1.03720968923092e-09 
	 0.00948443345467946 ,	 1.03691052310898e-09 
	 0.0107709167,	 1.036151575e-09
	 0.01263874427,	 1.035364557e-09
	 0.01431965254,	 1.034885786e-09
	 0.01588999342,	 1.034589455e-09
	 0.01762968744,	 1.034404294e-09
	 0.01972339052,	 1.03435976e-09
	 0.02216672641,	 1.034540722e-09
	 0.02487110794,	 1.035034815e-09
	 0.02783307733,	 1.03595024e-09
	 0.0311229843,	 1.037469025e-09
	 0.03481694058,	 1.039878125e-09
	 0.03895718394,	 1.043576128e-09
	 0.04356118209,	 1.049088902e-09
	 0.0486914877,	 1.057207582e-09
	 0.04946523999,	 1.05862917e-09
END
BEGIN
	 0.09703492116,	 3.050720041e-08
	 0.09800647457,	 3.050722968e-08
	 0.09897804022,	 3.050725916e-08
	 0.09994961968,	 3.050728885e-08
	 0.1092669346,	 3.050758368e-08
	 0.1403700035,	 3.050869203e-08
	 0.1924705177,	 3.051091937e-08
	 0.2464131896,	 3.051363184e-08
	 0.3028798701,	 3.051683447e-08
	 0.3723147552,	 3.052118805e-08
	 0.4655555569,	 3.05276013e-08
	 0.5878830294,	 3.053673631e-08
	 0.7405276397,	 3.054885995e-08
	 0.9289588956,	 3.056434574e-08
	 1.16501799609628808873651450995 ,	 3.05837391725271156881137905436e-08 
	 1.46473596136606287743120446976 ,	 3.06072259352447050213716058312e-08 
	 1.84569470577533145672077807831 ,	 3.06337644701781678347553066963e-08 
	 2.32761783756750961771331276395 ,	 3.06602590251297447880107858303e-08 
	 2.94235674665517343839837849373 ,	 3.06806992284464090462208689467e-08 
	 3.04254782916181998331239810796 ,	 3.0682529363691095341968646153e-08 
END
BEGIN
	-0.01413813969,	-5.885050134e-09
	-0.01427950042,	-5.885029479e-09
	-0.01442085482,	-5.885008721e-09
	-0.01456220013,	-5.88498786e-09
	-0.01591718607,	-5.884782796e-09
	-0.02043351738,	-5.88403935e-09
	-0.02797242625,	-5.882638865e-09
	-0.0357388267,	-5.881057224e-09
	-0.04382188325,	-5.87932978e-09
	-0.05369137271,	-5.877188616e-09
	-0.06681810477,	-5.874416782e-09
	-0.08381651948,	-5.871179801e-09
	-0.1046817171,	-5.868081471e-09
	-0.1299539948,	-5.866080401e-09
	-0.160986394,	-5.866816106e-09
	-0.1996899533,	-5.873244406e-09
	-0.2483932103,	-5.890155402e-09
	-0.3105141933,	-5.924317927e-09
	-0.3932678062,	-5.984919341e-09
	-0.4072927273,	-5.996261947e-09
END
BEGIN
	-0.01413813969,	-5.885050134e-09
	-0.01427950042,	-5.885029479e-09
	-0.01442085482,	-5.885008721e-09
	-0.01456220013,	-5.88498786e-09
	-0.01591718607,	-5.884782796e-09
	-0.02043351738,	-5.88403935e-09
	-0.02797242625,	-5.882638865e-09
	-0.0357388267,	-5.881057224e-09
	-0.04382188325,	-5.87932978e-09
	-0.05369137271,	-5.877188616e-09
	-0.06681810477,	-5.874416782e-09
	-0.08381651948,	-5.871179801e-09
	-0.1046817171,	-5.868081471e-09
	-0.1299539948,	-5.866080401e-09
	-0.160986394,	-5.866816106e-09
	-0.1996899533,	-5.873244406e-09
	-0.2483932103,	-5.890155402e-09
	-0.3105141933,	-5.924317927e-09
	-0.3932678062,	-5.984919341e-09
	-0.4072927273,	-5.996261947e-09
END
BEGIN
	 0.09703492116,	 3.050720041e-08
	 0.09800647457,	 3.050722968e-08
	 0.09897804022,	 3.050725916e-08
	 0.09994961968,	 3.050728885e-08
	 0.1092669346,	 3.050758368e-08
	 0.1403700035,	 3.050869203e-08
	 0.1924705177,	 3.051091937e-08
	 0.2464131896,	 3.051363184e-08
	 0.3028798701,	 3.051683447e-08
	 0.3723147552,	 3.052118805e-08
	 0.4655555569,	 3.05276013e-08
	 0.5878830294,	 3.053673631e-08
	 0.7405276397,	 3.054885995e-08
	 0.9289588956,	 3.056434574e-08
	 1.16501799609644240973693740671 ,	 3.0583739172527248037011799028e-08 
	 1.46473596136605488382542716863 ,	 3.06072259352445131154694935288e-08 
	 1.84569470577549044065790440072 ,	 3.0633764470177830345065385061e-08 
	 2.32761783756786044818909431342 ,	 3.06602590251296918484515824366e-08 
	 2.9423567466547675408605755365 ,	 3.06806992284462039054289557959e-08 
	 3.04254782916169164153075143986 ,	 3.06825293636909629930706376686e-08 
END
CITIFILE A.01.01
NAME PortSet2/TwoP0_Dsolver_data/first_odd_mode_is_1/most_even_mode_is_2/PMLG4/LS0

VAR freq MAG 20

DATA GAMMA_1[1] RI
DATA GAMMA_1[2] RI
DATA Z0_1[1,1] RI
DATA Z0_1[1,2] RI
DATA Z0_1[2,1] RI
DATA Z0_1[2,2] RI
DATA LAMBADAI_1[1,1] RI
DATA LAMBADAI_1[1,2] RI
DATA LAMBADAI_1[2,1] RI
DATA LAMBADAI_1[2,2] RI
DATA Zcir_1[1,1] RI
DATA Zcir_1[1,2] RI
DATA Zcir_1[2,1] RI
DATA Zcir_1[2,2] RI
DATA Ycir_1[1,1] RI
DATA Ycir_1[1,2] RI
DATA Ycir_1[2,1] RI
DATA Ycir_1[2,2] RI

VAR_LIST_BEGIN
	 200000000
	 202000000
	 204000000
	 206000000
	 225178347.3
	 289180513.4
	 396317523.8
	 507133827.6
	 623001319.8
	 765270491.1
	 955918188.9
	 1205278356
	 1515125965
	 1895472432
	 2368474330
	 2963391338
	 3710713314
	 4642698570
	 5811456702
	 6000000000
VAR_LIST_END

BEGIN
	 0.04127462444,	 6.58823879
	 0.04152517769,	 6.653951186
	 0.04177479014,	 6.719662568
	 0.04202366897,	 6.785373346
	 0.04437032138,	 7.415447001
	 0.05176492068,	 9.517719862
	 0.06306984377,	 13.03585894
	 0.0738197656,	 16.6740392
	 0.08435590712,	 20.47758089
	 0.09658945663,	 25.14749187
	 0.1120948731,	 31.40536082
	 0.1312789136,	 39.59113903
	 0.1538963141,	 49.76489031
	 0.1803642509,	 62.25885711
	 0.2118911299,	 77.80777471
	 0.2500440041,	 97.38742124
	 0.2964071224,	 122.0287256
	 0.3527080033,	 152.8471645
	 0.4219175676,	 191.6618948
	 0.4330010384,	 197.9431458
END
BEGIN
	 0.02746265786,	 7.16231794
	 0.02764926409,	 7.233863437
	 0.0278355847,	 7.305408571
	 0.02802130539,	 7.376953892
	 0.02978111015,	 8.063011874
	 0.03542347348,	 10.35256508
	 0.04430329916,	 14.18567996
	 0.05299570707,	 18.1515984
	 0.06172269797,	 22.30002226
	 0.07207801892,	 27.39666293
	 0.0855146714,	 34.23237906
	 0.1025639655,	 43.18506158
	 0.1231954845,	 54.33039323
	 0.1479818093,	 68.04664932
	 0.1782994665,	 85.16248269
	 0.2159888442,	 106.7867017
	 0.2630156101,	 134.1084957
	 0.3215400168,	 168.4292213
	 0.3950772286,	 211.8476279
	 0.40696485,	 218.8897508
END
BEGIN
	 70.7399248487286911313276505098 ,	 -0.154405573760835634899990509439 
	 70.7386654971257939905626699328 ,	 -0.153214250396564832801260536144 
	 70.737422080759330356158898212 ,	 -0.152040774978430520691929928034 
	 70.7361990074125230876234127209 ,	 -0.150883580578858117471341415694 
	 70.725301689822572370758280158 ,	 -0.140569823157598694507441905444 
	 70.697064137465574162888515275 ,	 -0.113826506659820136935223899854 
	 70.666027705178095175142516382 ,	 -0.0843895033970698399405918621596 
	 70.6449646347287085745847434737 ,	 -0.0642689710194035840329362940793 
	 70.6295069182347958758327877149 ,	 -0.0492020484864279725178981550471 
	 70.6161481981227581172788632102 ,	 -0.0355512646812711774479964788043 
	 70.6045592878707992667841608636 ,	 -0.022208785334036463404716599257 
	 70.5968300783082867155826534145 ,	 -0.00970277192008303299153304521951 
	 70.5958576882833739318812149577 ,	 0.00141209469510951315766866809298 
	 70.6052221093804206475397222675 ,	 0.0112659612814281495651869136054 
