CITIFILE A.01.01
#Momentum: B.11.40.482 (*) built: Dec  2 2014 
#Momentum Date and Time: Mon Jun 20 10:09:37 2022

NAME PortSet1/TwoP0_Dsolver_data/first_odd_mode_is_1/most_even_mode_is_1/PMLG4/LS0

CONSTANT NBR_OF_PORTS 1

VAR freq MAG 5

DATA GAMMA_1[1] RI
DATA Z0_1[1,1] RI
DATA LAMBADAI_1[1,1] RI
DATA Zcir_1[1,1] RI
DATA Ycir_1[1,1] RI

VAR_LIST_BEGIN
	 2000000000
	 2020000000
	 2040000000
	 2060000000
	 3000000000
VAR_LIST_END

BEGIN
	 0.1035470898,	 76.01197682
	 0.1046102763,	 76.77703646
	 0.1056740951,	 77.54222289
	 0.1067385513,	 78.30753724
	 0.1574996996,	 114.4280953
END
BEGIN
	 50.96146348466096 ,	 0.069411572060313662 
	 50.963343608621848 ,	 0.069427811989617047 
	 50.96524402036124 ,	 0.069444106847968284 
	 50.96716534761164 ,	 0.069460454385750478 
	 51.082371606384399 ,	 0.070283109032074909 
END
BEGIN
	 0.1035470898,	 76.01197682
	 0.1046102763,	 76.77703646
	 0.1056740951,	 77.54222289
	 0.1067385513,	 78.30753724
	 0.1574996996,	 114.4280953
END
BEGIN
	 2.12466706002098e-006 ,	 8.18246643454399e-010 
	 2.19734380222519e-006 ,	 8.18329483318228e-010 
	 2.27119929733025e-006 ,	 8.18412958781305e-010 
	 2.34723734263836e-006 ,	 8.18497082594293e-010 
	 8.21777477079746e-006 ,	 8.23138267931805e-010 
END
BEGIN
	 1.5308156190427957 ,	 4.4715623246964067e-008 
	 1.5464736871831275 ,	 4.471685064617635e-008 
	 1.5621392593704559 ,	 4.4718076869556005e-008 
	 1.577812321631531 ,	 4.4719301505536657e-008 
	 2.3226561089941931 ,	 4.4770245644642668e-008 
END
