CITIFILE A.01.01
#Momentum: B.11.40.482 (*) built: Dec  2 2014 
#Momentum Date and Time: Mon Jun 20 10:10:21 2022

NAME Momentum.SP

#  mode: MW    project: proj

CONSTANT NBR_OF_PORTS 1

CONSTANT NORMALIZATION 1

VAR freq MAG 101

DATA S[1,1] RI
DATA S_50[1,1] RI
DATA S_Z0[1,1] RI
DATA GAMMA[1] RI
DATA Z0[1] RI
DATA PORTZ[1] RI

VAR_LIST_BEGIN
	 2000000000
	 2010000000
	 2020000000
	 2030000000
	 2040000000
	 2050000000
	 2060000000
	 2070000000
	 2080000000
	 2090000000
	 2100000000
	 2110000000
	 2120000000
	 2130000000
	 2140000000
	 2150000000
	 2160000000
	 2170000000
	 2180000000
	 2190000000
	 2200000000
	 2210000000
	 2220000000
	 2230000000
	 2240000000
	 2250000000
	 2260000000
	 2270000000
	 2280000000
	 2290000000
	 2300000000
	 2310000000
	 2320000000
	 2330000000
	 2340000000
	 2350000000
	 2360000000
	 2370000000
	 2380000000
	 2390000000
	 2400000000
	 2410000000
	 2420000000
	 2430000000
	 2440000000
	 2450000000
	 2460000000
	 2470000000
	 2480000000
	 2490000000
	 2500000000
	 2510000000
	 2520000000
	 2530000000
	 2540000000
	 2550000000
	 2560000000
	 2570000000
	 2580000000
	 2590000000
	 2600000000
	 2610000000
	 2620000000
	 2630000000
	 2640000000
	 2650000000
	 2660000000
	 2670000000
	 2680000000
	 2690000000
	 2700000000
	 2710000000
	 2720000000
	 2730000000
	 2740000000
	 2750000000
	 2760000000
	 2770000000
	 2780000000
	 2790000000
	 2800000000
	 2810000000
	 2820000000
	 2830000000
	 2840000000
	 2850000000
	 2860000000
	 2870000000
	 2880000000
	 2890000000
	 2900000000
	 2910000000
	 2920000000
	 2930000000
	 2940000000
	 2950000000
	 2960000000
	 2970000000
	 2980000000
	 2990000000
	 3000000000
VAR_LIST_END

BEGIN
	 0.953791305,	-0.262265737
	 0.947488074,	-0.282955903
	 0.940643794,	-0.303693215
	 0.933240256,	-0.324477485
	 0.92525379,	-0.345317054
	 0.916665008,	-0.366202379
	 0.907447483,	-0.387135317
	 0.897570182,	-0.40812105
	 0.887001699,	-0.429156263
	 0.875704919,	-0.450242221
	 0.863633329,	-0.471385263
	 0.850743615,	-0.492577081
	 0.836973103,	-0.513826915
	 0.822262128,	-0.53512687
	 0.806534724,	-0.556475215
	 0.78969797,	-0.577875065
	 0.771646036,	-0.599322626
	 0.752259864,	-0.620802513
	 0.731396108,	-0.6422928
	 0.708886094,	-0.663771407
	 0.684524892,	-0.685196339
	 0.658043595,	-0.706528098
	 0.629165518,	-0.727656952
	 0.597522884,	-0.748464267
	 0.562663699,	-0.768767641
	 0.524046546,	-0.788290454
	 0.480995289,	-0.806632122
	 0.432698475,	-0.823184334
	 0.378169854,	-0.837040882
	 0.316240107,	-0.846831944
	 0.245549775,	-0.85047732
	 0.164917489,	-0.844806922
	 0.0732714771,	-0.825022808
	-0.0289947656,	-0.78403371
	-0.13833718,	-0.711944604
	-0.244579675,	-0.596766334
	-0.326368851,	-0.428640562
	-0.349427925,	-0.211607488
	-0.279064721,	 0.0224658402
	-0.10885008,	 0.214824843
	 0.120323089,	 0.314094692
	 0.3471959,	 0.313520595
	 0.530012053,	 0.243324519
	 0.658653867,	 0.140132006
	 0.740438518,	 0.0294398668
	 0.787685938,	-0.0758945104
	 0.81114855,	-0.170883974
	 0.818757088,	-0.254584222
	 0.815925738,	-0.327744926
	 0.806237279,	-0.391672807
	 0.792033059,	-0.44775704
	 0.77485615,	-0.497208485
	 0.755712576,	-0.541109075
	 0.735272731,	-0.580328161
	 0.71398347,	-0.615584344
	 0.6921522,	-0.647442598
	 0.669967585,	-0.676408161
	 0.647579013,	-0.702836304
	 0.625065201,	-0.727075659
	 0.602501608,	-0.749363949
	 0.579917014,	-0.76993751
	 0.557342107,	-0.788965901
	 0.534791813,	-0.806606643
	 0.51227965,	-0.822984487
	 0.48981232,	-0.838204827
	 0.467389353,	-0.852362746
	 0.445015356,	-0.865534469
	 0.422689811,	-0.877786061
	 0.400407002,	-0.889176488
	 0.378170604,	-0.899756842
	 0.355977148,	-0.909567677
	 0.333825744,	-0.91864867
	 0.311714936,	-0.927032362
	 0.289645999,	-0.93474655
	 0.267619154,	-0.941817176
	 0.245629876,	-0.948266184
	 0.223683509,	-0.95411356
	 0.201776738,	-0.959377332
	 0.179913785,	-0.964072247
	 0.158093977,	-0.968212637
	 0.136318004,	-0.971811202
	 0.114591838,	-0.974878631
	 0.0929137193,	-0.977424438
	 0.0712915343,	-0.979457894
	 0.0497221319,	-0.980987684
	 0.0282128983,	-0.98202044
	 0.00676417473,	-0.982563133
	-0.0146138379,	-0.982621421
	-0.0359253317,	-0.982200752
	-0.0571654298,	-0.981305043
	-0.0783254715,	-0.979937146
	-0.0994064786,	-0.978094381
	-0.12038649,	-0.975765276
	-0.141196107,	-0.972987262
	-0.161937859,	-0.969862911
	-0.182636177,	-0.966262555
	-0.203225237,	-0.962191427
	-0.223700923,	-0.957667201
	-0.244050521,	-0.952700798
	-0.264291685,	-0.947290137
	-0.284396408,	-0.941444604
END
BEGIN
	 0.953791305,	-0.262265737
	 0.947488074,	-0.282955903
	 0.940643794,	-0.303693215
	 0.933240256,	-0.324477485
	 0.92525379,	-0.345317054
	 0.916665008,	-0.366202379
	 0.907447483,	-0.387135317
	 0.897570182,	-0.40812105
	 0.887001699,	-0.429156263
	 0.875704919,	-0.450242221
	 0.863633329,	-0.471385263
	 0.850743615,	-0.492577081
	 0.836973103,	-0.513826915
	 0.822262128,	-0.53512687
	 0.806534724,	-0.556475215
	 0.78969797,	-0.577875065
	 0.771646036,	-0.599322626
	 0.752259864,	-0.620802513
	 0.731396108,	-0.6422928
	 0.708886094,	-0.663771407
	 0.684524892,	-0.685196339
	 0.658043595,	-0.706528098
	 0.629165518,	-0.727656952
	 0.597522884,	-0.748464267
	 0.562663699,	-0.768767641
	 0.524046546,	-0.788290454
	 0.480995289,	-0.806632122
	 0.432698475,	-0.823184334
	 0.378169854,	-0.837040882
	 0.316240107,	-0.846831944
	 0.245549775,	-0.85047732
	 0.164917489,	-0.844806922
	 0.0732714771,	-0.825022808
	-0.0289947656,	-0.78403371
	-0.13833718,	-0.711944604
	-0.244579675,	-0.596766334
	-0.326368851,	-0.428640562
	-0.349427925,	-0.211607488
	-0.279064721,	 0.0224658402
	-0.10885008,	 0.214824843
	 0.120323089,	 0.314094692
	 0.3471959,	 0.313520595
	 0.530012053,	 0.243324519
	 0.658653867,	 0.140132006
	 0.740438518,	 0.0294398668
	 0.787685938,	-0.0758945104
	 0.81114855,	-0.170883974
	 0.818757088,	-0.254584222
	 0.815925738,	-0.327744926
	 0.806237279,	-0.391672807
	 0.792033059,	-0.44775704
	 0.77485615,	-0.497208485
	 0.755712576,	-0.541109075
	 0.735272731,	-0.580328161
	 0.71398347,	-0.615584344
	 0.6921522,	-0.647442598
	 0.669967585,	-0.676408161
	 0.647579013,	-0.702836304
	 0.625065201,	-0.727075659
	 0.602501608,	-0.749363949
	 0.579917014,	-0.76993751
	 0.557342107,	-0.788965901
	 0.534791813,	-0.806606643
	 0.51227965,	-0.822984487
	 0.48981232,	-0.838204827
	 0.467389353,	-0.852362746
	 0.445015356,	-0.865534469
	 0.422689811,	-0.877786061
	 0.400407002,	-0.889176488
	 0.378170604,	-0.899756842
	 0.355977148,	-0.909567677
	 0.333825744,	-0.91864867
	 0.311714936,	-0.927032362
	 0.289645999,	-0.93474655
	 0.267619154,	-0.941817176
	 0.245629876,	-0.948266184
	 0.223683509,	-0.95411356
	 0.201776738,	-0.959377332
	 0.179913785,	-0.964072247
	 0.158093977,	-0.968212637
	 0.136318004,	-0.971811202
	 0.114591838,	-0.974878631
	 0.0929137193,	-0.977424438
	 0.0712915343,	-0.979457894
	 0.0497221319,	-0.980987684
	 0.0282128983,	-0.98202044
	 0.00676417473,	-0.982563133
	-0.0146138379,	-0.982621421
	-0.0359253317,	-0.982200752
	-0.0571654298,	-0.981305043
	-0.0783254715,	-0.979937146
	-0.0994064786,	-0.978094381
	-0.12038649,	-0.975765276
	-0.141196107,	-0.972987262
	-0.161937859,	-0.969862911
	-0.182636177,	-0.966262555
	-0.203225237,	-0.962191427
	-0.223700923,	-0.957667201
	-0.244050521,	-0.952700798
	-0.264291685,	-0.947290137
	-0.284396408,	-0.941444604
END
BEGIN
	 0.952233145,	-0.267116887
	 0.945698877,	-0.288163365
	 0.938604855,	-0.309250658
	 0.930932604,	-0.330377746
	 0.922658052,	-0.351552215
	 0.913761636,	-0.372763428
	 0.904216587,	-0.394012258
	 0.893991455,	-0.415302876
	 0.883054519,	-0.436630732
	 0.871368265,	-0.457995825
	 0.858885625,	-0.479403149
	 0.845562995,	-0.500842738
	 0.831336991,	-0.522322187
	 0.816147564,	-0.54383157
	 0.799918153,	-0.565366934
	 0.782555064,	-0.5869289
	 0.763951751,	-0.608510726
	 0.743988611,	-0.630093532
	 0.722521778,	-0.651651264
	 0.699382072,	-0.673157123
	 0.674364304,	-0.694563319
	 0.647199044,	-0.71582335
	 0.617610893,	-0.736819024
	 0.585233496,	-0.757421483
	 0.549617822,	-0.77743568
	 0.510228072,	-0.796569642
	 0.466397283,	-0.814404032
	 0.417329434,	-0.830308204
	 0.362062859,	-0.843350013
	 0.299467039,	-0.852131327
	 0.228242408,	-0.854544598
	 0.147299118,	-0.84740731
	 0.0556947218,	-0.825937201
	-0.0460088869,	-0.783135456
	-0.15409883,	-0.709336079
	-0.258354763,	-0.592974557
	-0.337751353,	-0.424739406
	-0.358915904,	-0.208897792
	-0.288142331,	 0.0234738871
	-0.118770909,	 0.215163973
	 0.109922945,	 0.315286713
	 0.337719031,	 0.315894254
	 0.522377333,	 0.246001594
	 0.652841552,	 0.142044362
	 0.735899289,	 0.029923874
	 0.783782548,	-0.077067495
	 0.807354721,	-0.173668054
	 0.814698418,	-0.258805066
	 0.811357644,	-0.333187426
	 0.801010178,	-0.398124252
	 0.786061817,	-0.455025125
	 0.768098464,	-0.505125605
	 0.748153063,	-0.549532484
	 0.72691326,	-0.589136737
	 0.704836533,	-0.624675431
	 0.682237103,	-0.656728684
	 0.659306795,	-0.685814605
	 0.636197714,	-0.712298506
	 0.612988936,	-0.736537746
	 0.589756811,	-0.758776916
	 0.566529587,	-0.779258216
	 0.543337889,	-0.798155954
	 0.520196099,	-0.815631756
	 0.497117351,	-0.83181384
	 0.474107921,	-0.846810542
	 0.45116678,	-0.86071947
	 0.428298181,	-0.873619117
	 0.405501232,	-0.885577494
	 0.382769799,	-0.896655228
	 0.360107275,	-0.906905083
	 0.337509957,	-0.916368966
	 0.314976688,	-0.92508788
	 0.292505815,	-0.933095558
	 0.270098479,	-0.940420951
	 0.247754744,	-0.947091076
	 0.225469939,	-0.953128784
	 0.203249324,	-0.958555122
	 0.181089452,	-0.963388954
	 0.158994494,	-0.967645975
	 0.136963678,	-0.971341334
	 0.114997606,	-0.974488548
	 0.0931022034,	-0.977099206
	 0.0712756293,	-0.979183535
	 0.0495257025,	-0.980751713
	 0.0278491612,	-0.981813071
	 0.00625332878,	-0.982375102
	-0.0152615617,	-0.982445472
	-0.0366854001,	-0.982030737
	-0.0580225009,	-0.981136914
	-0.0792680861,	-0.979768682
	-0.100413597,	-0.977929728
	-0.121460052,	-0.975617997
	-0.142385345,	-0.972823166
	-0.163121168,	-0.969584782
	-0.183772279,	-0.96600348
	-0.204360254,	-0.961949908
	-0.224819689,	-0.957431374
	-0.245147052,	-0.952466196
	-0.265330119,	-0.947066121
	-0.285386637,	-0.941229266
	-0.305289162,	-0.934966155
END
BEGIN
	 0.10354709,	 76.0119768
	 0.104078604,	 76.3944908
	 0.104610276,	 76.7770365
	 0.105142107,	 77.1596138
	 0.105674095,	 77.5422229
	 0.106206243,	 77.924864
	 0.106738551,	 78.3075372
	 0.107271014,	 78.6902405
	 0.107803634,	 79.0729747
	 0.108336411,	 79.4557398
	 0.108869345,	 79.8385359
	 0.109402436,	 80.2213632
	 0.109935685,	 80.6042216
	 0.110469092,	 80.9871114
	 0.111002657,	 81.3700325
	 0.111536379,	 81.7529851
	 0.11207026,	 82.1359692
	 0.112604299,	 82.518985
	 0.113138497,	 82.9020325
	 0.113672854,	 83.2851119
	 0.11420737,	 83.6682231
	 0.114742045,	 84.0513663
	 0.115276879,	 84.4345416
	 0.115811873,	 84.817749
	 0.116347026,	 85.2009887
	 0.116882339,	 85.5842607
	 0.117417813,	 85.9675651
	 0.117953446,	 86.350902
	 0.11848924,	 86.7342716
	 0.119025195,	 87.1176737
	 0.11956131,	 87.5011087
	 0.120097587,	 87.8845765
	 0.120634024,	 88.2680772
	 0.121170623,	 88.651611
	 0.121707383,	 89.0351778
	 0.122244305,	 89.4187779
	 0.122781389,	 89.8024112
	 0.123318635,	 90.1860779
	 0.123856043,	 90.569778
	 0.124393613,	 90.9535117
	 0.124931346,	 91.337279
	 0.125469242,	 91.72108
	 0.126007301,	 92.1049149
	 0.126545522,	 92.4887835
	 0.127083908,	 92.8726862
	 0.127622456,	 93.2566229
	 0.128161168,	 93.6405938
	 0.128700044,	 94.0245989
	 0.129239084,	 94.4086382
	 0.129778289,	 94.792712
	 0.130317657,	 95.1768203
	 0.130857191,	 95.5609631
	 0.131396889,	 95.9451406
	 0.131936752,	 96.3293529
	 0.13247678,	 96.7135999
	 0.133016973,	 97.0978819
	 0.133557332,	 97.4821989
	 0.134097856,	 97.8665509
	 0.134638547,	 98.2509381
	 0.135179403,	 98.6353606
	 0.135720425,	 99.0198185
	 0.136261614,	 99.4043117
	 0.13680297,	 99.7888405
	 0.137344492,	 100.173405
	 0.137886181,	 100.558005
	 0.138428037,	 100.942641
	 0.138970061,	 101.327312
	 0.139512252,	 101.71202
	 0.14005461,	 102.096764
	 0.140597137,	 102.481544
	 0.141139831,	 102.866359
	 0.141682694,	 103.251212
	 0.142225725,	 103.6361
	 0.142768925,	 104.021025
	 0.143312293,	 104.405987
	 0.14385583,	 104.790985
	 0.144399537,	 105.17602
	 0.144943412,	 105.561092
	 0.145487458,	 105.946201
	 0.146031672,	 106.331346
	 0.146576057,	 106.716529
	 0.147120612,	 107.101749
	 0.147665337,	 107.487006
	 0.148210232,	 107.8723
	 0.148755298,	 108.257632
	 0.149300535,	 108.643001
	 0.149845942,	 109.028408
	 0.150391521,	 109.413852
	 0.150937271,	 109.799335
	 0.151483192,	 110.184855
	 0.152029286,	 110.570412
	 0.152575551,	 110.956008
	 0.153121988,	 111.341642
	 0.153668597,	 111.727314
	 0.154215379,	 112.113025
	 0.154762333,	 112.498774
	 0.15530946,	 112.884561
	 0.15585676,	 113.270386
	 0.156404233,	 113.656251
	 0.15695188,	 114.042154
	 0.1574997,	 114.428095
END
BEGIN
	 50.961463479999999 ,	 0.069411572059999996 
	 50.962401010000001 ,	 0.069419685110000004 
	 50.963343610000003 ,	 0.069427811990000005 
	 50.964291279999998 ,	 0.069435952600000003 
	 50.96524402 ,	 0.069444106850000006 
	 50.966202070000001 ,	 0.06945227407 
	 50.967165350000002 ,	 0.069460454389999995 
	 50.968134310000003 ,	 0.069468647489999993 
	 50.969108810000002 ,	 0.069476853419999998 
	 50.970088840000003 ,	 0.069485072149999993 
	 50.971074399999999 ,	 0.069493303640000004 
	 50.972065499999999 ,	 0.069501547839999997 
	 50.973062120000002 ,	 0.069509804719999999 
	 50.97406428 ,	 0.069518074250000006 
	 50.975071970000002 ,	 0.069526356390000002 
	 50.976085179999998 ,	 0.069534651099999997 
	 50.977103929999998 ,	 0.069542958340000002 
	 50.978128210000001 ,	 0.069551278090000002 
	 50.979158009999999 ,	 0.069559610320000007 
	 50.98019335 ,	 0.069567954979999999 
	 50.981234209999997 ,	 0.069576312050000005 
	 50.982280600000003 ,	 0.069584681499999995 
	 50.983332509999997 ,	 0.069593063290000007 
	 50.984389950000001 ,	 0.069601457399999997 
	 50.98545292 ,	 0.069609863800000005 
	 50.986521410000002 ,	 0.069618282449999999 
	 50.987595429999999 ,	 0.069626713339999993 
	 50.988674969999998 ,	 0.069635156419999997 
	 50.98976004 ,	 0.069643611679999995 
	 50.990850629999997 ,	 0.069652079089999999 
	 50.991946749999997 ,	 0.069660558629999994 
	 50.993048379999998 ,	 0.069669050250000003 
	 50.994155540000001 ,	 0.069677553959999999 
	 50.99526822 ,	 0.069686069700000006 
	 50.99638642 ,	 0.069694597469999994 
	 50.997510149999997 ,	 0.069703137240000004 
	 50.998639390000001 ,	 0.069711688990000006 
	 50.99977415 ,	 0.069720252679999997 
	 51.000914440000003 ,	 0.069728828310000004 
	 51.002060239999999 ,	 0.069737415849999998 
	 51.003211559999997 ,	 0.069746015270000003 
	 51.004368399999997 ,	 0.069754626560000005 
	 51.005530749999998 ,	 0.069763249690000001 
	 51.006698630000002 ,	 0.069771884650000005 
	 51.00787201 ,	 0.069780531409999999 
	 51.00905092 ,	 0.069789189959999998 
	 51.010235340000001 ,	 0.069797860269999998 
	 51.011425279999997 ,	 0.069806542329999999 
	 51.012620730000002 ,	 0.069815236109999998 
	 51.013821700000001 ,	 0.069823941609999995 
	 51.015028180000002 ,	 0.069832658790000002 
	 51.016240170000003 ,	 0.069841387660000004 
	 51.01745768 ,	 0.069850128169999998 
	 51.018680689999997 ,	 0.069858880329999998 
	 51.019909230000003 ,	 0.069867644110000002 
	 51.021143270000003 ,	 0.069876419499999995 
	 51.022382819999997 ,	 0.069885206480000003 
	 51.023627879999999 ,	 0.069894005029999998 
	 51.024878459999996 ,	 0.069902815150000006 
	 51.026134540000001 ,	 0.069911636799999996 
	 51.02739613 ,	 0.069920469989999998 
	 51.028663229999999 ,	 0.069929314689999994 
	 51.02993584 ,	 0.069938170889999998 
	 51.031213960000002 ,	 0.069947038579999996 
	 51.032497579999998 ,	 0.069955917739999998 
	 51.033786710000001 ,	 0.069964808360000005 
	 51.035081339999998 ,	 0.069973710420000002 
	 51.036381489999997 ,	 0.069982623920000001 
	 51.037687130000002 ,	 0.06999154883 
	 51.038998280000001 ,	 0.07000048515 
	 51.040314940000002 ,	 0.070009432869999999 
	 51.041637100000003 ,	 0.070018391969999996 
	 51.042964759999997 ,	 0.070027362430000004 
	 51.044297929999999 ,	 0.070036344259999994 
	 51.045636590000001 ,	 0.070045337429999993 
	 51.046980759999997 ,	 0.070054341940000001 
	 51.04833043 ,	 0.070063357770000001 
	 51.049685599999997 ,	 0.070072384909999993 
	 51.051046280000001 ,	 0.070081423360000006 
	 51.052412449999999 ,	 0.070090473089999994 
	 51.053784120000003 ,	 0.07009953411 
	 51.055161290000001 ,	 0.070108606399999995 
	 51.056543949999998 ,	 0.070117689950000006 
	 51.057932119999997 ,	 0.070126784750000004 
	 51.059325780000002 ,	 0.070135890790000002 
	 51.06072494 ,	 0.070145008070000001 
	 51.062129599999999 ,	 0.070154136569999997 
	 51.063539749999997 ,	 0.070163276280000006 
	 51.064955400000002 ,	 0.070172427189999997 
	 51.06637654 ,	 0.0701815893 
	 51.067803169999998 ,	 0.070190762599999998 
	 51.069235300000003 ,	 0.070199947070000004 
	 51.070672930000001 ,	 0.070209142720000006 
	 51.072116039999997 ,	 0.070218349520000001 
	 51.073564650000002 ,	 0.070227567480000003 
	 51.075018749999998 ,	 0.070236796589999997 
	 51.076478340000001 ,	 0.070246036829999997 
	 51.077943419999997 ,	 0.070255288200000002 
	 51.079413989999999 ,	 0.070264550699999997 
	 51.080890060000002 ,	 0.070273824309999997 
	 51.082371610000003 ,	 0.070283109029999999 
END
BEGIN
	 50 ,	 0 
	 50 ,	 0 
	 50 ,	 0 
	 50 ,	 0 
	 50 ,	 0 
	 50 ,	 0 
	 50 ,	 0 
	 50 ,	 0 
	 50 ,	 0 
	 50 ,	 0 
	 50 ,	 0 
	 50 ,	 0 
	 50 ,	 0 
	 50 ,	 0 
	 50 ,	 0 
	 50 ,	 0 
	 50 ,	 0 
	 50 ,	 0 
	 50 ,	 0 
	 50 ,	 0 
	 50 ,	 0 
	 50 ,	 0 
	 50 ,	 0 
	 50 ,	 0 
	 50 ,	 0 
	 50 ,	 0 
	 50 ,	 0 
	 50 ,	 0 
	 50 ,	 0 
	 50 ,	 0 
	 50 ,	 0 
	 50 ,	 0 
	 50 ,	 0 
	 50 ,	 0 
	 50 ,	 0 
	 50 ,	 0 
	 50 ,	 0 
	 50 ,	 0 
	 50 ,	 0 
	 50 ,	 0 
	 50 ,	 0 
	 50 ,	 0 
	 50 ,	 0 
	 50 ,	 0 
	 50 ,	 0 
	 50 ,	 0 
	 50 ,	 0 
	 50 ,	 0 
	 50 ,	 0 
	 50 ,	 0 
	 50 ,	 0 
	 50 ,	 0 
	 50 ,	 0 
	 50 ,	 0 
	 50 ,	 0 
	 50 ,	 0 
	 50 ,	 0 
	 50 ,	 0 
	 50 ,	 0 
	 50 ,	 0 
	 50 ,	 0 
	 50 ,	 0 
	 50 ,	 0 
	 50 ,	 0 
	 50 ,	 0 
	 50 ,	 0 
	 50 ,	 0 
	 50 ,	 0 
	 50 ,	 0 
	 50 ,	 0 
	 50 ,	 0 
	 50 ,	 0 
	 50 ,	 0 
	 50 ,	 0 
	 50 ,	 0 
	 50 ,	 0 
	 50 ,	 0 
	 50 ,	 0 
	 50 ,	 0 
	 50 ,	 0 
	 50 ,	 0 
	 50 ,	 0 
	 50 ,	 0 
	 50 ,	 0 
	 50 ,	 0 
	 50 ,	 0 
	 50 ,	 0 
	 50 ,	 0 
	 50 ,	 0 
	 50 ,	 0 
	 50 ,	 0 
	 50 ,	 0 
	 50 ,	 0 
	 50 ,	 0 
	 50 ,	 0 
	 50 ,	 0 
	 50 ,	 0 
	 50 ,	 0 
	 50 ,	 0 
	 50 ,	 0 
	 50 ,	 0 
END
