CITIFILE A.01.01
#Momentum: B.11.40.482 (*) built: Dec  2 2014 
#Momentum Date and Time: Mon Sep 21 10:38:23 2020

NAME Momentum.SP

#  mode: MW    project: proj

CONSTANT NBR_OF_PORTS 1

CONSTANT NORMALIZATION 1

VAR freq MAG 101

DATA S[1,1] RI
DATA S_50[1,1] RI
DATA S_Z0[1,1] RI
DATA GAMMA[1] RI
DATA Z0[1] RI
DATA PORTZ[1] RI

VAR_LIST_BEGIN
	 2000000000
	 2010000000
	 2020000000
	 2030000000
	 2040000000
	 2050000000
	 2060000000
	 2070000000
	 2080000000
	 2090000000
	 2100000000
	 2110000000
	 2120000000
	 2130000000
	 2140000000
	 2150000000
	 2160000000
	 2170000000
	 2180000000
	 2190000000
	 2200000000
	 2210000000
	 2220000000
	 2230000000
	 2240000000
	 2250000000
	 2260000000
	 2270000000
	 2280000000
	 2290000000
	 2300000000
	 2310000000
	 2320000000
	 2330000000
	 2340000000
	 2350000000
	 2360000000
	 2370000000
	 2380000000
	 2390000000
	 2400000000
	 2410000000
	 2420000000
	 2430000000
	 2440000000
	 2450000000
	 2460000000
	 2470000000
	 2480000000
	 2490000000
	 2500000000
	 2510000000
	 2520000000
	 2530000000
	 2540000000
	 2550000000
	 2560000000
	 2570000000
	 2580000000
	 2590000000
	 2600000000
	 2610000000
	 2620000000
	 2630000000
	 2640000000
	 2650000000
	 2660000000
	 2670000000
	 2680000000
	 2690000000
	 2700000000
	 2710000000
	 2720000000
	 2730000000
	 2740000000
	 2750000000
	 2760000000
	 2770000000
	 2780000000
	 2790000000
	 2800000000
	 2810000000
	 2820000000
	 2830000000
	 2840000000
	 2850000000
	 2860000000
	 2870000000
	 2880000000
	 2890000000
	 2900000000
	 2910000000
	 2920000000
	 2930000000
	 2940000000
	 2950000000
	 2960000000
	 2970000000
	 2980000000
	 2990000000
	 3000000000
VAR_LIST_END

BEGIN
	 0.99237959912947993 ,	 -0.075089777192339086 
	 0.99034578794734673 ,	 -0.095842859004414638 
	 0.987830296,	-0.116761407
	 0.984816302,	-0.137844503
	 0.981280325,	-0.15912259
	 0.977203459,	-0.180580736
	 0.972561635,	-0.202226801
	 0.967324112,	-0.224080537
	 0.961459289,	-0.24615171
	 0.954944343,	-0.268410635
	 0.94769996,	-0.290985813
	 0.939716803,	-0.313775712
	 0.930921936,	-0.336848676
	 0.921258003,	-0.360205946
	 0.910644249,	-0.383882219
	 0.898993519,	-0.407897357
	 0.886203786,	-0.432270871
	 0.87213891,	-0.457049129
	 0.856675007,	-0.482216596
	 0.839609398,	-0.507839521
	 0.820727229,	-0.533935455
	 0.799774269,	-0.560505194
	 0.776401522,	-0.587581682
	 0.750228026,	-0.615122337
	 0.720721154,	-0.643104146
	 0.687263252,	-0.671401584
	 0.649014,	-0.699835753
	 0.604942631,	-0.728054203
	 0.553714335,	-0.755451319
	 0.493647577,	-0.780986826
	 0.422597418,	-0.802931155
	 0.338056619,	-0.81834521
	 0.237238714,	-0.822348926
	 0.117950425,	-0.806928066
	-0.0195967624,	-0.759429962
	-0.167610237,	-0.662049912
	-0.303678414,	-0.495058809
	-0.383029813,	-0.25220493
	-0.351310508,	 0.0339339074
	-0.188627196,	 0.286181472
	 0.0570944107,	 0.43237406
	 0.308226118,	 0.460994186
	 0.513929664,	 0.408211441
	 0.662514129,	 0.316387613
	 0.762207424,	 0.213546396
	 0.82587639,	 0.113605068
	 0.864582582,	 0.0219526113
	 0.886319236,	-0.0600635692
	 0.896530328,	-0.132805491
	 0.898883175,	-0.197350826
	 0.895807782,	-0.254865959
	 0.888923085,	-0.306348636
	 0.879331531,	-0.352777907
	 0.867784756,	-0.394865079
	 0.854803026,	-0.433299957
	 0.840754367,	-0.46858288
	 0.825892097,	-0.501154063
	 0.810407275,	-0.531362539
	 0.794455001,	-0.559453422
	 0.778064427,	-0.585824125
	 0.761376516,	-0.610522516
	 0.744421054,	-0.633771153
	 0.727233841,	-0.655717273
	 0.709852318,	-0.676469973
	 0.692295941,	-0.696142071
	 0.67458238,	-0.714816128
	 0.656720496,	-0.732572184
	 0.63872707,	-0.749469161
	 0.620604729,	-0.765568546
	 0.602366384,	-0.780912593
	 0.584014664,	-0.795544613
	 0.565549415,	-0.809505052
	 0.54697906,	-0.822823409
	 0.528310931,	-0.835524122
	 0.509546259,	-0.847632491
	 0.490683747,	-0.859173249
	 0.471729803,	-0.87016378
	 0.452685505,	-0.880621176
	 0.433559339,	-0.890557576
	 0.414345263,	-0.899989938
	 0.395051298,	-0.908927313
	 0.375679034,	-0.917380164
	 0.356237981,	-0.925356127
	 0.336721984,	-0.932865721
	 0.317137302,	-0.939914691
	 0.297490641,	-0.946509524
	 0.277780675,	-0.952655385
	 0.258020341,	-0.958356226
	 0.238199857,	-0.9636184
	 0.218330475,	-0.968442962
	 0.198412665,	-0.972833086
	 0.178457762,	-0.976780742
	 0.158433292,	-0.980256878
	 0.138558294,	-0.983309655
	 0.118538836,	-0.98609652
	 0.0984553103,	-0.988394762
	 0.0783602884,	-0.990255473
	 0.058275482,	-0.991691855
	 0.0381498733,	-0.992711791
	 0.0180382548,	-0.99331335
	-0.00206810943,	-0.993499298
END
BEGIN
	 0.99237959912947993 ,	 -0.075089777192339086 
	 0.99034578794734673 ,	 -0.095842859004414638 
	 0.987830296,	-0.116761407
	 0.984816302,	-0.137844503
	 0.981280325,	-0.15912259
	 0.977203459,	-0.180580736
	 0.972561635,	-0.202226801
	 0.967324112,	-0.224080537
	 0.961459289,	-0.24615171
	 0.954944343,	-0.268410635
	 0.94769996,	-0.290985813
	 0.939716803,	-0.313775712
	 0.930921936,	-0.336848676
	 0.921258003,	-0.360205946
	 0.910644249,	-0.383882219
	 0.898993519,	-0.407897357
	 0.886203786,	-0.432270871
	 0.87213891,	-0.457049129
	 0.856675007,	-0.482216596
	 0.839609398,	-0.507839521
	 0.820727229,	-0.533935455
	 0.799774269,	-0.560505194
	 0.776401522,	-0.587581682
	 0.750228026,	-0.615122337
	 0.720721154,	-0.643104146
	 0.687263252,	-0.671401584
	 0.649014,	-0.699835753
	 0.604942631,	-0.728054203
	 0.553714335,	-0.755451319
	 0.493647577,	-0.780986826
	 0.422597418,	-0.802931155
	 0.338056619,	-0.81834521
	 0.237238714,	-0.822348926
	 0.117950425,	-0.806928066
	-0.0195967624,	-0.759429962
	-0.167610237,	-0.662049912
	-0.303678414,	-0.495058809
	-0.383029813,	-0.25220493
	-0.351310508,	 0.0339339074
	-0.188627196,	 0.286181472
	 0.0570944107,	 0.43237406
	 0.308226118,	 0.460994186
	 0.513929664,	 0.408211441
	 0.662514129,	 0.316387613
	 0.762207424,	 0.213546396
	 0.82587639,	 0.113605068
	 0.864582582,	 0.0219526113
	 0.886319236,	-0.0600635692
	 0.896530328,	-0.132805491
	 0.898883175,	-0.197350826
	 0.895807782,	-0.254865959
	 0.888923085,	-0.306348636
	 0.879331531,	-0.352777907
	 0.867784756,	-0.394865079
	 0.854803026,	-0.433299957
	 0.840754367,	-0.46858288
	 0.825892097,	-0.501154063
	 0.810407275,	-0.531362539
	 0.794455001,	-0.559453422
	 0.778064427,	-0.585824125
	 0.761376516,	-0.610522516
	 0.744421054,	-0.633771153
	 0.727233841,	-0.655717273
	 0.709852318,	-0.676469973
	 0.692295941,	-0.696142071
	 0.67458238,	-0.714816128
	 0.656720496,	-0.732572184
	 0.63872707,	-0.749469161
	 0.620604729,	-0.765568546
	 0.602366384,	-0.780912593
	 0.584014664,	-0.795544613
	 0.565549415,	-0.809505052
	 0.54697906,	-0.822823409
	 0.528310931,	-0.835524122
	 0.509546259,	-0.847632491
	 0.490683747,	-0.859173249
	 0.471729803,	-0.87016378
	 0.452685505,	-0.880621176
	 0.433559339,	-0.890557576
	 0.414345263,	-0.899989938
	 0.395051298,	-0.908927313
	 0.375679034,	-0.917380164
	 0.356237981,	-0.925356127
	 0.336721984,	-0.932865721
	 0.317137302,	-0.939914691
	 0.297490641,	-0.946509524
	 0.277780675,	-0.952655385
	 0.258020341,	-0.958356226
	 0.238199857,	-0.9636184
	 0.218330475,	-0.968442962
	 0.198412665,	-0.972833086
	 0.178457762,	-0.976780742
	 0.158433292,	-0.980256878
	 0.138558294,	-0.983309655
	 0.118538836,	-0.98609652
	 0.0984553103,	-0.988394762
	 0.0783602884,	-0.990255473
	 0.058275482,	-0.991691855
	 0.0381498733,	-0.992711791
	 0.0180382548,	-0.99331335
	-0.00206810943,	-0.993499298
END
BEGIN
	 0.99218474762959741 ,	 -0.076477414341529271 
	 0.99007954644102891 ,	 -0.097611642377118626 
	 0.987475211,	-0.118912291
	 0.984354449,	-0.140377788
	 0.980693102,	-0.162038434
	 0.976471799,	-0.183878288
	 0.971665866,	-0.205904554
	 0.966243796,	-0.228136458
	 0.960173249,	-0.25058298
	 0.953431036,	-0.273212918
	 0.945935679,	-0.296155702
	 0.937678131,	-0.319306872
	 0.928583752,	-0.342734418
	 0.918594172,	-0.366437972
	 0.907627052,	-0.390450889
	 0.895593706,	-0.414791174
	 0.882390421,	-0.439476134
	 0.867878705,	-0.464549814
	 0.851933226,	-0.489993101
	 0.834348093,	-0.515868902
	 0.814905813,	-0.542189981
	 0.793349543,	-0.568951113
	 0.769326562,	-0.596177987
	 0.742453479,	-0.6238184
	 0.712194216,	-0.65183724
	 0.677929733,	-0.680093209
	 0.638819026,	-0.708386836
	 0.593834983,	-0.736339096
	 0.541653006,	-0.763309873
	 0.480614235,	-0.788215412
	 0.40861698,	-0.809273352
	 0.323233937,	-0.823488465
	 0.221814479,	-0.825936691
	 0.102380191,	-0.80861748
	-0.0345675821,	-0.759039232
	-0.180986069,	-0.659858644
	-0.314607298,	-0.492153539
	-0.391730087,	-0.25034988
	-0.359653997,	 0.0337045719
	-0.198595639,	 0.285125406
	 0.0457745407,	 0.432799345
	 0.297492485,	 0.463673237
	 0.505229073,	 0.412214911
	 0.656123792,	 0.32041215
	 0.757709877,	 0.216683607
	 0.822671411,	 0.115418259
	 0.862129832,	 0.0223201146
	 0.884202005,	-0.061095877
	 0.894448873,	-0.135117019
	 0.896629635,	-0.200798174
	 0.893240489,	-0.259306502
	 0.885947008,	-0.311649117
	 0.875883498,	-0.358819979
	 0.863824111,	-0.401543411
	 0.850303999,	-0.440523017
	 0.835701991,	-0.476270089
	 0.820278597,	-0.509234668
	 0.804230183,	-0.539773991
	 0.787716357,	-0.568139623
	 0.770766079,	-0.594736454
	 0.753524968,	-0.619615672
	 0.73602321,	-0.643004572
	 0.718297487,	-0.665053957
	 0.70038625,	-0.685875895
	 0.682309353,	-0.705585924
	 0.664084994,	-0.724268804
	 0.645722279,	-0.742006549
	 0.627238472,	-0.75885983
	 0.608636325,	-0.774891655
	 0.589929171,	-0.790145665
	 0.571119827,	-0.804666375
	 0.552208255,	-0.818495309
	 0.533203195,	-0.831663023
	 0.514112303,	-0.844194919
	 0.494936999,	-0.856117143
	 0.475676115,	-0.867455201
	 0.456336347,	-0.878227286
	 0.436918977,	-0.888451188
	 0.417432815,	-0.898139822
	 0.3978719,	-0.907310688
	 0.378244569,	-0.915973555
	 0.358552621,	-0.924139495
	 0.338805861,	-0.93181687
	 0.31899824,	-0.939016649
	 0.29913628,	-0.945745222
	 0.279226914,	-0.95200973
	 0.259269001,	-0.957815832
	 0.239275743,	-0.96316824
	 0.219237441,	-0.968073638
	 0.199165623,	-0.972533795
	 0.179060923,	-0.976552398
	 0.158935086,	-0.980122114
	 0.138756318,	-0.983213671
	 0.118743448,	-0.985880278
	 0.098598728,	-0.988274324
	 0.0784074243,	-0.990174646
	 0.0582213307,	-0.991634036
	 0.0380620151,	-0.992666672
	 0.0178783487,	-0.993279919
	-0.0022747197,	-0.993473461
	-0.0224059366,	-0.993250397
END
BEGIN
	 3.11156453e-032,	 76.0576455
	 1.23710377e-022,	 76.4407249
	 0,	 76.8238378
	 1.24756305e-022,	 77.2069841
	 2.0334044e-032,	 77.5901641
	 1.14651771e-022,	 77.9733777
	 1.51013568e-032,	 78.3566252
	 7.51762654e-022,	 78.7399051
	 1.99134501e-021,	 79.1232179
	 3.70839491e-021,	 79.5065637
	 5.89229177e-021,	 79.8899427
	 8.53214662e-021,	 80.2733548
	 1.16168022e-020,	 80.6568002
	 1.5134833e-020,	 81.0402789
	 1.90745453e-020,	 81.4237909
	 2.34239773e-020,	 81.8073364
	 2.8170899e-020,	 82.1909155
	 3.33028124e-020,	 82.5745281
	 3.88069516e-020,	 82.9581743
	 4.46702829e-020,	 83.3418543
	 5.08795044e-020,	 83.7255681
	 5.74210468e-020,	 84.1093158
	 6.42810727e-020,	 84.4930974
	 7.14454774e-020,	 84.876913
	 7.88998882e-020,	 85.2607627
	 8.66296653e-020,	 85.6446465
	 9.4619901e-020,	 86.0285645
	 1.0285542e-019,	 86.4125168
	 1.11320781e-019,	 86.7965035
	 1.20000273e-019,	 87.1805246
	 1.2887792e-019,	 87.5645802
	 1.37937477e-019,	 87.9486703
	 1.47162434e-019,	 88.3327951
	 1.56536011e-019,	 88.7169545
	 1.66041165e-019,	 89.1011488
	 1.75660581e-019,	 89.4853779
	 1.85376682e-019,	 89.8696418
	 1.95171621e-019,	 90.2539408
	 2.05027286e-019,	 90.6382748
	 2.14925296e-019,	 91.022644
	 2.24847007e-019,	 91.4070483
	 2.34773504e-019,	 91.7914878
	 2.4468561e-019,	 92.1759627
	 2.54563878e-019,	 92.560473
	 2.64388598e-019,	 92.9450188
	 2.74139789e-019,	 93.3296
	 2.83797208e-019,	 93.7142169
	 2.93340344e-019,	 94.0988695
	 3.0274842e-019,	 94.4835578
	 3.12000393e-019,	 94.8682819
	 3.21074955e-019,	 95.2530418
	 3.2995053e-019,	 95.6378378
	 3.38605277e-019,	 96.0226697
	 3.47017091e-019,	 96.4075377
	 3.551636e-019,	 96.7924419
	 3.63022164e-019,	 97.1773823
	 3.70569881e-019,	 97.562359
	 3.77783582e-019,	 97.947372
	 3.84639832e-019,	 98.3324215
	 3.91114931e-019,	 98.7175075
	 3.97184915e-019,	 99.1026301
	 4.02825552e-019,	 99.4877892
	 4.08012348e-019,	 99.8729851
	 4.12720541e-019,	 100.258218
	 4.16925105e-019,	 100.643487
	 4.2060075e-019,	 101.028794
	 4.23721921e-019,	 101.414137
	 4.26262795e-019,	 101.799518
	 4.28197289e-019,	 102.184935
	 4.29499051e-019,	 102.57039
	 4.30141468e-019,	 102.955882
	 4.3009766e-019,	 103.341411
	 4.29340484e-019,	 103.726978
	 4.2784253e-019,	 104.112582
	 4.25576127e-019,	 104.498224
	 4.22513338e-019,	 104.883903
	 4.18625961e-019,	 105.26962
	 4.13885532e-019,	 105.655375
	 4.0826332e-019,	 106.041168
	 4.01730334e-019,	 106.426998
	 3.94257315e-019,	 106.812867
	 3.85814743e-019,	 107.198773
	 3.76372832e-019,	 107.584717
	 3.65901535e-019,	 107.9707
	 3.54370538e-019,	 108.356721
	 3.41749266e-019,	 108.74278
	 3.2800688e-019,	 109.128877
	 3.13112278e-019,	 109.515013
	 2.97034092e-019,	 109.901188
	 2.79740694e-019,	 110.287401
	 2.61200191e-019,	 110.673652
	 2.41380428e-019,	 111.059943
	 2.20248985e-019,	 111.446272
	 1.97773181e-019,	 111.83264
	 1.73920073e-019,	 112.219046
	 1.48656451e-019,	 112.605492
	 1.21948846e-019,	 112.991977
	 9.37635249e-020,	 113.378501
	 6.40664927e-020,	 113.765064
	 3.28234912e-020,	 114.151666
	 1.63573627e-032,	 114.538308
END
BEGIN
	 50.931238100000002 ,	 -2.5489096330000001e-017 
	 50.931956169999999 ,	 -1.9741783540000001e-017 
	 50.93268037 ,	 -1.7895622110000001e-017 
	 50.933410709999997 ,	 -1.9892702609999999e-017 
	 50.934147179999997 ,	 -2.5676252219999999e-017 
	 50.93488996 ,	 -3.4553042540000002e-017 
	 50.935638969999999 ,	 -4.6689303880000003e-017 
	 50.936394360000001 ,	 -5.6694477549999999e-017 
	 50.937156100000003 ,	 -6.6371867140000001e-017 
	 50.937924160000001 ,	 -7.5726194809999998e-017 
	 50.938698559999999 ,	 -8.4762092700000005e-017 
	 50.939479290000001 ,	 -9.3484105030000003e-017 
	 50.940266360000003 ,	 -1.018966902e-016 
	 50.941059760000002 ,	 -1.100042228e-016 
	 50.941859489999999 ,	 -1.1781099559999999e-016 
	 50.942665550000001 ,	 -1.2532122130000001e-016 
	 50.943477940000001 ,	 -1.325390346e-016 
	 50.944296659999999 ,	 -1.394684939e-016 
	 50.945121710000002 ,	 -1.461135831e-016 
	 50.945953090000003 ,	 -1.52478213e-016 
	 50.946790800000002 ,	 -1.5856622359999999e-016 
	 50.947634829999998 ,	 -1.6438138489999999e-016 
	 50.94848519 ,	 -1.6992739919999999e-016 
	 50.949341879999999 ,	 -1.7520790219999999e-016 
	 50.950204900000003 ,	 -1.8022646450000001e-016 
	 50.951074239999997 ,	 -1.8498659330000001e-016 
	 50.951949910000003 ,	 -1.894917336e-016 
	 50.9528319 ,	 -1.937452695e-016 
	 50.95372021 ,	 -1.977505258e-016 
	 50.954614849999999 ,	 -2.0151076900000001e-016 
	 50.955515810000001 ,	 -2.050292088e-016 
	 50.956423090000001 ,	 -2.083089993e-016 
	 50.957336699999999 ,	 -2.1135324000000001e-016 
	 50.95825662 ,	 -2.141649772e-016 
	 50.959182869999999 ,	 -2.1674720500000001e-016 
	 50.960115430000002 ,	 -2.1910286640000001e-016 
	 50.961054320000002 ,	 -2.2123485470000001e-016 
	 50.961999519999999 ,	 -2.23146014e-016 
	 50.96295104 ,	 -2.2483914059999999e-016 
	 50.963908889999999 ,	 -2.2631698399999998e-016 
	 50.964873040000001 ,	 -2.2758224769999999e-016 
	 50.96584352 ,	 -2.286375903e-016 
	 50.966820310000003 ,	 -2.2948562639999998e-016 
	 50.967803410000002 ,	 -2.301289275e-016 
	 50.968792829999998 ,	 -2.3057002280000002e-016 
	 50.969788569999999 ,	 -2.308114002e-016 
	 50.970790620000002 ,	 -2.3085550689999998e-016 
	 50.971798980000003 ,	 -2.3070475059999998e-016 
	 50.97281366 ,	 -2.3036150009999999e-016 
	 50.97383464 ,	 -2.2982808579999999e-016 
	 50.974861939999997 ,	 -2.291068011e-016 
	 50.975895549999997 ,	 -2.2819990260000001e-016 
	 50.976935480000002 ,	 -2.271096109e-016 
	 50.977981710000002 ,	 -2.2583811150000001e-016 
	 50.979034249999998 ,	 -2.2438755559999999e-016 
	 50.980093099999998 ,	 -2.2276006029999999e-016 
	 50.98115825 ,	 -2.2095770970000001e-016 
	 50.982229719999999 ,	 -2.189825554e-016 
	 50.983307490000001 ,	 -2.16836617e-016 
	 50.98439157 ,	 -2.14521883e-016 
	 50.985481960000001 ,	 -2.12040311e-016 
	 50.986578649999998 ,	 -2.0939382889999999e-016 
	 50.987681639999998 ,	 -2.065843347e-016 
	 50.988790950000002 ,	 -2.036136977e-016 
	 50.989906550000001 ,	 -2.004837588e-016 
	 50.991028460000003 ,	 -1.9719633079999999e-016 
	 50.99215667 ,	 -1.937531995e-016 
	 50.99329118 ,	 -1.901561238e-016 
	 50.994432000000003 ,	 -1.86406836e-016 
	 50.995579110000001 ,	 -1.8250704300000001e-016 
	 50.996732530000003 ,	 -1.784584259e-016 
	 50.99789225 ,	 -1.7426264129999999e-016 
	 50.999058259999998 ,	 -1.6992132119999999e-016 
	 51.00023058 ,	 -1.654360736e-016 
	 51.001409189999997 ,	 -1.608084829e-016 
	 51.002594100000003 ,	 -1.5604011070000001e-016 
	 51.003785309999998 ,	 -1.511324954e-016 
	 51.004982820000002 ,	 -1.4608715359999999e-016 
	 51.006186620000001 ,	 -1.4090557980000001e-016 
	 51.007396720000003 ,	 -1.355892469e-016 
	 51.008613109999999 ,	 -1.3013960679999999e-016 
	 51.009835799999998 ,	 -1.2455809070000001e-016 
	 51.011064779999998 ,	 -1.188461095e-016 
	 51.01230005 ,	 -1.1300505389999999e-016 
	 51.013541619999998 ,	 -1.07036295e-016 
	 51.014789479999997 ,	 -1.009411847e-016 
	 51.016043629999999 ,	 -9.4721055850000001e-017 
	 51.017304080000002 ,	 -8.8377222650000003e-017 
	 51.01857081 ,	 -8.1910981009999995e-017 
	 51.019843829999999 ,	 -7.5323608820000004e-017 
	 51.021123150000001 ,	 -6.8616366299999996e-017 
	 51.022408749999997 ,	 -6.1790496249999999e-017 
	 51.023700640000001 ,	 -5.4847224419999998e-017 
	 51.02499882 ,	 -4.7787759739999999e-017 
	 51.026303290000001 ,	 -4.0613294630000003e-017 
	 51.027614040000003 ,	 -3.332500528e-017 
	 51.02893108 ,	 -2.5924051919999999e-017 
	 51.030254409999998 ,	 -1.8411579110000001e-017 
	 51.031584019999997 ,	 -1.0788715950000001e-017 
	 51.032919919999998 ,	 -3.0565764069999999e-018 
	 51.034262099999999 ,	 4.7837404949999998e-018 
END
BEGIN
	 50 ,	 0 
	 50 ,	 0 
	 50 ,	 0 
	 50 ,	 0 
	 50 ,	 0 
	 50 ,	 0 
	 50 ,	 0 
	 50 ,	 0 
	 50 ,	 0 
	 50 ,	 0 
	 50 ,	 0 
	 50 ,	 0 
	 50 ,	 0 
	 50 ,	 0 
	 50 ,	 0 
	 50 ,	 0 
	 50 ,	 0 
	 50 ,	 0 
	 50 ,	 0 
	 50 ,	 0 
	 50 ,	 0 
	 50 ,	 0 
	 50 ,	 0 
	 50 ,	 0 
	 50 ,	 0 
	 50 ,	 0 
	 50 ,	 0 
	 50 ,	 0 
	 50 ,	 0 
	 50 ,	 0 
	 50 ,	 0 
	 50 ,	 0 
	 50 ,	 0 
	 50 ,	 0 
	 50 ,	 0 
	 50 ,	 0 
	 50 ,	 0 
	 50 ,	 0 
	 50 ,	 0 
	 50 ,	 0 
	 50 ,	 0 
	 50 ,	 0 
	 50 ,	 0 
	 50 ,	 0 
	 50 ,	 0 
	 50 ,	 0 
	 50 ,	 0 
	 50 ,	 0 
	 50 ,	 0 
	 50 ,	 0 
	 50 ,	 0 
	 50 ,	 0 
	 50 ,	 0 
	 50 ,	 0 
	 50 ,	 0 
	 50 ,	 0 
	 50 ,	 0 
	 50 ,	 0 
	 50 ,	 0 
	 50 ,	 0 
	 50 ,	 0 
	 50 ,	 0 
	 50 ,	 0 
	 50 ,	 0 
	 50 ,	 0 
	 50 ,	 0 
	 50 ,	 0 
	 50 ,	 0 
	 50 ,	 0 
	 50 ,	 0 
	 50 ,	 0 
	 50 ,	 0 
	 50 ,	 0 
	 50 ,	 0 
	 50 ,	 0 
	 50 ,	 0 
	 50 ,	 0 
	 50 ,	 0 
	 50 ,	 0 
	 50 ,	 0 
	 50 ,	 0 
	 50 ,	 0 
	 50 ,	 0 
	 50 ,	 0 
	 50 ,	 0 
	 50 ,	 0 
	 50 ,	 0 
	 50 ,	 0 
	 50 ,	 0 
	 50 ,	 0 
	 50 ,	 0 
	 50 ,	 0 
	 50 ,	 0 
	 50 ,	 0 
	 50 ,	 0 
	 50 ,	 0 
	 50 ,	 0 
	 50 ,	 0 
	 50 ,	 0 
	 50 ,	 0 
	 50 ,	 0 
END
