CITIFILE A.01.01
#Momentum: B.11.40.482 (*) built: Dec  2 2014 
#Momentum Date and Time: Mon Sep 21 10:37:58 2020

NAME PortSet1/TwoP0_Dsolver_data/first_odd_mode_is_1/most_even_mode_is_1/PMLG4/LS0

CONSTANT NBR_OF_PORTS 1

VAR freq MAG 5

DATA GAMMA_1[1] RI
DATA Z0_1[1,1] RI
DATA LAMBADAI_1[1,1] RI
DATA Zcir_1[1,1] RI
DATA Ycir_1[1,1] RI

VAR_LIST_BEGIN
	 2000000000
	 2020000000
	 2040000000
	 2060000000
	 3000000000
VAR_LIST_END

BEGIN
	-0,	 76.05764549
	-0,	 76.82383778
	-0,	 77.59016406
	-0,	 78.35662519
	-0,	 114.5383078
END
BEGIN
	 50.931238099228338 ,	 0 
	 50.932680370557939 ,	 0 
	 50.934147184584795 ,	 0 
	 50.935638968889236 ,	 0 
	 51.034262095181177 ,	 0 
END
BEGIN
	 0,	 76.05764549
	 0,	 76.82383778
	 0,	 77.59016406
	 0,	 78.35662519
	 0,	 114.5383078
END
BEGIN
	 5.14596333590561e-018 ,	 8.18251139154229e-010 
	 3.64932188243168e-018 ,	 8.18334130714526e-010 
	 5.28819760795724e-018 ,	 8.18417760413746e-010 
	 9.71096734336209e-018 ,	 8.18502037180431e-010 
	 -1.45441299758903e-018 ,	 8.23153542117689e-010 
END
BEGIN
	 -2.81552557179135e-016 ,	 4.47692075526748e-008 
	 -1.99655079375428e-016 ,	 4.47712125943139e-008 
	 -2.89301611858662e-016 ,	 4.47732090996717e-008 
	 -5.31227112628893e-016 ,	 4.47751967974067e-008 
	 7.92547542254719e-017 ,	 4.48557815273311e-008 
END
