File Format: MDS
Revision:  2.01
Title: netlist.log
Date: Fri Apr  8 17:03:24 2022
Plotname: TRAN Tran1[1] <netlist.log>   time=(0 s->5 ns)
Flags: real 
No. Sweep Variables: 0
Sweep Variables:	
No. Variables: 6
Variables:	0	time	time type=real indep=yes
		1	Vout_PAM_2	voltage type=real indep=no
		2	Vout_PAM_1	voltage type=real indep=no
		3	Vin_PAM_2	voltage type=real indep=no
		4	Vin_PAM_1	voltage type=real indep=no
		5	tranorder	none type=real indep=no mixop=none
Values:
0	0.000000000000000e+00	-9.899028646662721e-01
	9.899028646662721e-01	-1.006972135283849e+00
	1.006972135283849e+00	1.000000000000000e+00

1	1.000000000000000e-12	-9.899028646662719e-01
	9.899028646662719e-01	-1.006972135283849e+00
	1.006972135283849e+00	1.000000000000000e+00

2	2.000000000000000e-12	-9.899028646662716e-01
	9.899028646662716e-01	-1.006972135283849e+00
	1.006972135283849e+00	1.000000000000000e+00

3	3.000000000000000e-12	-9.899028646662714e-01
	9.899028646662714e-01	-1.006972135283850e+00
	1.006972135283849e+00	2.000000000000000e+00

4	4.000000000000000e-12	-9.899028646662712e-01
	9.899028646662712e-01	-1.006972135283850e+00
	1.006972135283849e+00	2.000000000000000e+00

5	5.000000000000000e-12	-9.899028646662710e-01
	9.899028646662710e-01	-1.006972135283850e+00
	1.006972135283849e+00	2.000000000000000e+00

6	6.000000000000000e-12	-9.899028646662709e-01
	9.899028646662708e-01	-1.006972135283850e+00
	1.006972135283850e+00	2.000000000000000e+00

7	7.000000000000000e-12	-9.899028646662706e-01
	9.899028646662706e-01	-1.006972135283850e+00
	1.006972135283849e+00	2.000000000000000e+00

8	8.000000000000000e-12	-9.899028646662705e-01
	9.899028646662704e-01	-1.006972135283850e+00
	1.006972135283849e+00	2.000000000000000e+00

9	9.000000000000000e-12	-9.899028646662706e-01
	9.899028646662703e-01	-1.006972135283850e+00
	1.006972135283849e+00	2.000000000000000e+00

10	9.999999999999999e-12	-9.899028646662704e-01
	9.899028646662701e-01	-1.006972135283850e+00
	1.006972135283849e+00	2.000000000000000e+00

11	1.100000000000000e-11	-9.899028646662703e-01
	9.899028646662700e-01	-1.006972135283850e+00
	1.006972135283849e+00	2.000000000000000e+00

12	1.200000000000000e-11	-9.899028646662701e-01
	9.899028646662702e-01	-1.006972135283850e+00
	1.006972135283849e+00	2.000000000000000e+00

13	1.300000000000000e-11	-9.899028646662700e-01
	9.899028646662703e-01	-1.006972135283850e+00
	1.006972135283849e+00	2.000000000000000e+00

14	1.400000000000000e-11	-9.899028646662702e-01
	9.899028646662701e-01	-1.006972135283850e+00
	1.006972135283849e+00	2.000000000000000e+00

15	1.500000000000000e-11	-9.899028646662703e-01
	9.899028646662700e-01	-1.006972135283850e+00
	1.006972135283849e+00	2.000000000000000e+00

16	1.600000000000000e-11	-9.899028646662702e-01
	9.899028646662702e-01	-1.006972135283850e+00
	1.006972135283850e+00	2.000000000000000e+00

17	1.700000000000000e-11	-9.899028646662704e-01
	9.899028646662703e-01	-1.006972135283850e+00
	1.006972135283849e+00	2.000000000000000e+00

18	1.800000000000000e-11	-9.899028646662705e-01
	9.899028646662701e-01	-1.006972135283850e+00
	1.006972135283849e+00	2.000000000000000e+00

19	1.900000000000000e-11	-9.899028646662708e-01
	9.899028646662700e-01	-1.006972135283850e+00
	1.006972135283849e+00	2.000000000000000e+00

20	2.000000000000000e-11	-9.899028646662709e-01
	9.899028646662702e-01	-1.006972135283850e+00
	1.006972135283849e+00	2.000000000000000e+00

21	2.100000000000000e-11	-9.899028646662706e-01
	9.899028646662703e-01	-1.006972135283850e+00
	1.006972135283849e+00	2.000000000000000e+00

22	2.200000000000000e-11	-9.899028646662705e-01
	9.899028646662701e-01	-1.006972135283850e+00
	1.006972135283850e+00	2.000000000000000e+00

23	2.300000000000000e-11	-9.899028646662706e-01
	9.899028646662700e-01	-1.006972135283850e+00
	1.006972135283849e+00	2.000000000000000e+00

24	2.400000000000000e-11	-9.899028646662705e-01
	9.899028646662702e-01	-1.006972135283850e+00
	1.006972135283849e+00	2.000000000000000e+00

25	2.500000000000000e-11	-9.899028646662706e-01
	9.899028646662703e-01	-1.006972135283850e+00
	1.006972135283849e+00	2.000000000000000e+00

26	2.600000000000000e-11	-9.899028646662704e-01
	9.899028646662701e-01	-1.006972135283850e+00
	1.006972135283849e+00	2.000000000000000e+00

27	2.700000000000000e-11	-9.899028646662703e-01
	9.899028646662700e-01	-1.006972135283850e+00
	1.006972135283849e+00	2.000000000000000e+00

28	2.800000000000000e-11	-9.899028646662702e-01
	9.899028646662702e-01	-1.006972135283850e+00
	1.006972135283849e+00	2.000000000000000e+00

29	2.900000000000000e-11	-9.899028646662704e-01
	9.899028646662703e-01	-1.006972135283850e+00
	1.006972135283849e+00	2.000000000000000e+00

30	3.000000000000000e-11	-9.899028646662705e-01
	9.899028646662701e-01	-1.006972135283850e+00
	1.006972135283849e+00	2.000000000000000e+00

31	3.100000000000000e-11	-9.899028646662708e-01
	9.899028646662700e-01	-1.006972135283850e+00
	1.006972135283849e+00	2.000000000000000e+00

32	3.200000000000000e-11	-9.899028646662709e-01
	9.899028646662702e-01	-1.006972135283850e+00
	1.006972135283849e+00	2.000000000000000e+00

33	3.300000000000000e-11	-9.899028646662706e-01
	9.899028646662703e-01	-1.006972135283850e+00
	1.006972135283849e+00	2.000000000000000e+00

34	3.400000000000000e-11	-9.899028646662705e-01
	9.899028646662701e-01	-1.006972135283850e+00
	1.006972135283849e+00	2.000000000000000e+00

35	3.500000000000000e-11	-9.899028646662708e-01
	9.899028646662700e-01	-1.006972135283850e+00
	1.006972135283849e+00	2.000000000000000e+00

36	3.600000000000000e-11	-9.899028646662709e-01
	9.899028646662702e-01	-1.006972135283850e+00
	1.006972135283849e+00	2.000000000000000e+00

37	3.700000000000000e-11	-9.899028646662706e-01
	9.899028646662703e-01	-1.006972135283850e+00
	1.006972135283849e+00	2.000000000000000e+00

38	3.800000000000000e-11	-9.899028646662705e-01
	9.899028646662701e-01	-1.006972135283850e+00
	1.006972135283849e+00	2.000000000000000e+00

39	3.900000000000000e-11	-9.899028646662708e-01
	9.899028646662700e-01	-1.006972135283850e+00
	1.006972135283849e+00	2.000000000000000e+00

40	4.000000000000000e-11	-9.899028646662709e-01
	9.899028646662702e-01	-1.006972135283850e+00
	1.006972135283849e+00	2.000000000000000e+00

41	4.100000000000000e-11	-9.899028646662706e-01
	9.899028646662703e-01	-1.006972135283850e+00
	1.006972135283849e+00	2.000000000000000e+00

42	4.200000000000000e-11	-9.899028646662705e-01
	9.899028646662701e-01	-1.006972135283850e+00
	1.006972135283849e+00	2.000000000000000e+00

43	4.300000000000000e-11	-9.899028646662708e-01
	9.899028646662700e-01	-1.006972135283850e+00
	1.006972135283849e+00	2.000000000000000e+00

44	4.400000000000000e-11	-9.899028646662709e-01
	9.899028646662702e-01	-1.006972135283850e+00
	1.006972135283850e+00	2.000000000000000e+00

45	4.500000000000000e-11	-9.899028646662706e-01
	9.899028646662703e-01	-1.006972135283849e+00
	1.006972135283849e+00	2.000000000000000e+00

46	4.600000000000000e-11	-9.899028646662705e-01
	9.899028646662701e-01	-1.006972135283850e+00
	1.006972135283849e+00	2.000000000000000e+00

47	4.700000000000000e-11	-9.899028646662706e-01
	9.899028646662700e-01	-1.006972135283850e+00
	1.006972135283849e+00	2.000000000000000e+00

48	4.800000000000000e-11	-9.899028646662704e-01
	9.899028646662702e-01	-1.006972135283850e+00
	1.006972135283849e+00	2.000000000000000e+00

49	4.900000000000000e-11	-9.899028646662703e-01
	9.899028646662703e-01	-1.006972135283850e+00
	1.006972135283849e+00	2.000000000000000e+00

50	5.000000000000000e-11	-9.899028646662701e-01
	9.899028646662701e-01	-1.006972135283850e+00
	1.006972135283849e+00	2.000000000000000e+00

51	5.100000000000000e-11	-9.897918371575064e-01
	9.897918371575065e-01	-6.551006739281003e-01
	6.551006739300637e-01	2.000000000000000e+00

52	5.200000000000000e-11	-9.896598233749991e-01
	9.896598233749990e-01	-2.920025600423464e-01
	2.920025600423953e-01	2.000000000000000e+00

53	5.300000000000000e-11	-9.895534327733495e-01
	9.895534327733482e-01	5.947691341133756e-02
	-5.947691341136152e-02	2.000000000000000e+00

54	5.400000000000000e-11	-9.895238738830376e-01
	9.895238738830366e-01	6.498133719392296e-02
	-6.498133719264809e-02	2.000000000000000e+00

55	5.500000000000000e-11	-9.895962687829856e-01
	9.895962687829857e-01	6.338653968752721e-02
	-6.338653968746805e-02	2.000000000000000e+00

56	5.600000000000000e-11	-9.896308581084728e-01
	9.896308581084713e-01	6.696824100155996e-02
	-6.696824100156962e-02	2.000000000000000e+00

57	5.700000000000000e-11	-9.896597735207366e-01
	9.896597735207356e-01	6.880406170961993e-02
	-6.880406170967093e-02	2.000000000000000e+00

58	5.800000000000000e-11	-9.896827059824996e-01
	9.896827059825004e-01	6.867367685901961e-02
	-6.867367685898432e-02	2.000000000000000e+00

59	5.900000000000000e-11	-9.897052150096589e-01
	9.897052150096578e-01	6.964288850466162e-02
	-6.964288850464417e-02	2.000000000000000e+00

60	6.000000000000000e-11	-9.897156700365334e-01
	9.897156700365329e-01	7.043279560675872e-02
	-7.043279560680400e-02	2.000000000000000e+00

61	6.100000000000000e-11	-9.897236757661659e-01
	9.897236757661674e-01	7.076412150321115e-02
	-7.076412150319046e-02	2.000000000000000e+00

62	6.199999999999999e-11	-9.897358079157959e-01
	9.897358079157953e-01	7.119386097016869e-02
	-7.119386097014047e-02	2.000000000000000e+00

63	6.300000000000000e-11	-9.897315428939095e-01
	9.897315428939089e-01	7.156841779593152e-02
	-7.156841779597491e-02	2.000000000000000e+00

64	6.400000000000000e-11	-9.897203385627955e-01
	9.897203385627967e-01	7.183239977908211e-02
	-7.183239977907241e-02	2.000000000000000e+00

65	6.500000000000000e-11	-9.897187839746191e-01
	9.897187839746182e-01	7.231594077411677e-02
	-7.231594077408128e-02	2.000000000000000e+00

66	6.600000000000000e-11	-9.897070108350214e-01
	9.897070108350204e-01	7.258291627686639e-02
	-7.258291627690808e-02	2.000000000000000e+00

67	6.700000000000000e-11	-9.896813918121505e-01
	9.896813918121519e-01	7.272465310642098e-02
	-7.272465310641797e-02	2.000000000000000e+00

68	6.800000000000000e-11	-9.896692256759013e-01
	9.896692256759008e-01	7.324810176091227e-02
	-7.324810176087322e-02	2.000000000000000e+00

69	6.899999999999999e-11	-9.896540201409508e-01
	9.896540201409495e-01	7.352899573840707e-02
	-7.352899573844679e-02	2.000000000000000e+00

70	7.000000000000000e-11	-9.896262782666931e-01
	9.896262782666939e-01	7.383111993611942e-02
	-7.383111993612125e-02	2.000000000000000e+00

71	7.100000000000000e-11	-9.896135917949109e-01
	9.896135917949103e-01	7.444007746545868e-02
	-7.444007746541866e-02	2.000000000000000e+00

72	7.200000000000000e-11	-9.895952228933985e-01
	9.895952228933970e-01	7.443031634027571e-02
	-7.443031634031046e-02	2.000000000000000e+00

73	7.299999999999999e-11	-9.895664503756896e-01
	9.895664503756901e-01	7.482438873692837e-02
	-7.482438873693649e-02	2.000000000000000e+00

74	7.400000000000000e-11	-9.895560798733302e-01
	9.895560798733296e-01	7.540929008037212e-02
	-7.540929008033213e-02	2.000000000000000e+00

75	7.500000000000000e-11	-9.895367836140335e-01
	9.895367836140316e-01	7.529429994384905e-02
	-7.529429994387632e-02	2.000000000000000e+00

76	7.600000000000000e-11	-9.895074861318564e-01
	9.895074861318570e-01	7.572368291417712e-02
	-7.572368291419289e-02	2.000000000000000e+00

77	7.699999999999999e-11	-9.895000480257222e-01
	9.895000480257224e-01	7.616752647346392e-02
	-7.616752647342356e-02	2.000000000000000e+00

78	7.800000000000000e-11	-9.895018312013540e-01
	9.895018312013525e-01	7.633243381906385e-02
	-7.633243381908489e-02	2.000000000000000e+00

79	7.900000000000000e-11	-9.894904176711732e-01
	9.894904176711737e-01	7.653419147920082e-02
	-7.653419147922232e-02	2.000000000000000e+00

80	8.000000000000000e-11	-9.894805946047194e-01
	9.894805946047198e-01	7.684683506406645e-02
	-7.684683506402558e-02	2.000000000000000e+00

81	8.100000000000000e-11	-9.894779840596378e-01
	9.894779840596365e-01	7.692684910832373e-02
	-7.692684910834013e-02	2.000000000000000e+00

82	8.200000000000000e-11	-9.894610532449433e-01
	9.894610532449437e-01	7.714282163085180e-02
	-7.714282163087746e-02	2.000000000000000e+00

83	8.300000000000000e-11	-9.894493590985081e-01
	9.894493590985082e-01	7.746363491580016e-02
	-7.746363491576007e-02	2.000000000000000e+00

84	8.399999999999999e-11	-9.894429955138849e-01
	9.894429955138829e-01	7.751127225065765e-02
	-7.751127225066955e-02	2.000000000000000e+00

85	8.500000000000000e-11	-9.894155193823040e-01
	9.894155193823040e-01	7.745951063048147e-02
	-7.745951063050938e-02	2.000000000000000e+00

86	8.600000000000000e-11	-9.893979371905213e-01
	9.893979371905216e-01	7.803709699186409e-02
	-7.803709699182788e-02	2.000000000000000e+00

87	8.700000000000000e-11	-9.893895976399015e-01
	9.893895976398999e-01	7.809018382459894e-02
	-7.809018382460471e-02	2.000000000000000e+00

88	8.799999999999999e-11	-9.893576538528134e-01
	9.893576538528133e-01	7.815309428995786e-02
	-7.815309428998707e-02	2.000000000000000e+00

89	8.900000000000000e-11	-9.893287465082864e-01
	9.893287465082865e-01	7.862471665254903e-02
	-7.862471665251841e-02	2.000000000000000e+00

90	9.000000000000000e-11	-9.893093481763275e-01
	9.893093481763258e-01	7.866883382633279e-02
	-7.866883382633204e-02	2.000000000000000e+00

91	9.100000000000000e-11	-9.892766280988197e-01
	9.892766280988198e-01	7.881859571349784e-02
	-7.881859571352870e-02	2.000000000000000e+00

92	9.199999999999999e-11	-9.892406138124600e-01
	9.892406138124613e-01	7.927115319161684e-02
	-7.927115319159074e-02	2.000000000000000e+00

93	9.300000000000000e-11	-9.892135377332026e-01
	9.892135377332018e-01	7.924395819741682e-02
	-7.924395819740984e-02	2.000000000000000e+00

94	9.400000000000000e-11	-9.891823287849638e-01
	9.891823287849640e-01	7.945167114620359e-02
	-7.945167114623657e-02	2.000000000000000e+00

95	9.500000000000000e-11	-9.891528430729754e-01
	9.891528430729766e-01	7.985190661547426e-02
	-7.985190661545229e-02	2.000000000000000e+00

96	9.600000000000000e-11	-9.891423739685242e-01
	9.891423739685233e-01	8.005611105547306e-02
	-8.005611105546116e-02	2.000000000000000e+00

97	9.700000000000000e-11	-9.891224945347555e-01
	9.891224945347551e-01	8.004773922593883e-02
	-8.004773922597162e-02	2.000000000000000e+00

98	9.800000000000000e-11	-9.890956740443769e-01
	9.890956740443779e-01	8.038854184653652e-02
	-8.038854184651915e-02	2.000000000000000e+00

99	9.899999999999999e-11	-9.890922156718481e-01
	9.890922156718468e-01	8.059610748277928e-02
	-8.059610748276427e-02	2.000000000000000e+00

100	1.000000000000000e-10	-9.890756524720784e-01
	9.890756524720773e-01	8.060844488966051e-02
	-8.060844488969079e-02	2.000000000000000e+00

101	1.010000000000000e-10	-9.891615533187904e-01
	9.891615533187912e-01	-2.709831086449940e-01
	2.709831086463151e-01	2.000000000000000e+00

102	1.020000000000000e-10	-9.892908077932918e-01
	9.892908077932907e-01	-6.339357601306224e-01
	6.339357601306725e-01	2.000000000000000e+00

103	1.030000000000000e-10	-9.893931893352159e-01
	9.893931893352138e-01	-9.855166252456389e-01
	9.855166252455958e-01	2.000000000000000e+00

104	1.040000000000000e-10	-9.894112349784480e-01
	9.894112349784476e-01	-9.905968847317284e-01
	9.905968847304025e-01	2.000000000000000e+00

105	1.050000000000000e-10	-9.893321806963331e-01
	9.893321806963318e-01	-9.888868309840287e-01
	9.888868309840342e-01	2.000000000000000e+00

106	1.060000000000000e-10	-9.892846773048813e-01
	9.892846773048795e-01	-9.925089340153764e-01
	9.925089340153727e-01	2.000000000000000e+00

107	1.070000000000000e-10	-9.892338250022199e-01
	9.892338250022200e-01	-9.940040431772391e-01
	9.940040431772426e-01	2.000000000000000e+00

108	1.080000000000000e-10	-9.891970392316787e-01
	9.891970392316778e-01	-9.937360894943458e-01
	9.937360894943631e-01	2.000000000000000e+00

109	1.090000000000000e-10	-9.891557396854477e-01
	9.891557396854458e-01	-9.946931351493162e-01
	9.946931351493000e-01	2.000000000000000e+00

110	1.100000000000000e-10	-9.891036826980943e-01
	9.891036826980938e-01	-9.952564363341387e-01
	9.952564363341349e-01	2.000000000000000e+00

111	1.110000000000000e-10	-9.890664377067573e-01
	9.890664377067558e-01	-9.953864052708281e-01
	9.953864052708460e-01	2.000000000000000e+00

112	1.120000000000000e-10	-9.890349641785514e-01
	9.890349641785494e-01	-9.957685076637791e-01
	9.957685076637665e-01	2.000000000000000e+00

113	1.130000000000000e-10	-9.889999589329974e-01
	9.889999589329972e-01	-9.959066430168535e-01
	9.959066430168454e-01	2.000000000000000e+00

114	1.140000000000000e-10	-9.889820331495385e-01
	9.889820331495378e-01	-9.959332895062062e-01
	9.959332895062257e-01	2.000000000000000e+00

115	1.150000000000000e-10	-9.889605432077908e-01
	9.889605432077887e-01	-9.964293544960661e-01
	9.964293544960562e-01	2.000000000000000e+00

116	1.160000000000000e-10	-9.889364660148143e-01
	9.889364660148139e-01	-9.964641958618291e-01
	9.964641958618178e-01	2.000000000000000e+00

117	1.170000000000000e-10	-9.889364182558978e-01
	9.889364182558973e-01	-9.963360840669686e-01
	9.963360840669877e-01	2.000000000000000e+00

118	1.180000000000000e-10	-9.889250264665812e-01
	9.889250264665793e-01	-9.969183891093102e-01
	9.969183891093040e-01	2.000000000000000e+00

119	1.190000000000000e-10	-9.889076346557605e-01
	9.889076346557601e-01	-9.969764515520285e-01
	9.969764515520135e-01	2.000000000000000e+00

120	1.200000000000000e-10	-9.889160358087072e-01
	9.889160358087072e-01	-9.970552963765669e-01
	9.970552963765845e-01	2.000000000000000e+00

121	1.210000000000000e-10	-9.889245189454826e-01
	9.889245189454813e-01	-9.976537610923548e-01
	9.976537610923528e-01	2.000000000000000e+00

122	1.220000000000000e-10	-9.889268220947731e-01
	9.889268220947728e-01	-9.974659002915612e-01
	9.974659002915459e-01	2.000000000000000e+00

123	1.230000000000000e-10	-9.889363277936584e-01
	9.889363277936581e-01	-9.976635008835067e-01
	9.976635008835211e-01	2.000000000000000e+00

124	1.240000000000000e-10	-9.889441096337861e-01
	9.889441096337845e-01	-9.982193399034464e-01
	9.982193399034485e-01	2.000000000000000e+00

125	1.250000000000000e-10	-9.889488235541743e-01
	9.889488235541739e-01	-9.979305836201918e-01
	9.979305836201756e-01	2.000000000000000e+00

126	1.260000000000000e-10	-9.889579780549895e-01
	9.889579780549894e-01	-9.981813241732004e-01
	9.981813241732118e-01	2.000000000000000e+00

127	1.270000000000000e-10	-9.889574165442208e-01
	9.889574165442190e-01	-9.985908783069969e-01
	9.985908783070030e-01	2.000000000000000e+00

128	1.280000000000000e-10	-9.889335571299944e-01
	9.889335571299932e-01	-9.986701323644277e-01
	9.986701323644103e-01	2.000000000000000e+00

129	1.290000000000000e-10	-9.889216560585022e-01
	9.889216560585012e-01	-9.986131786743209e-01
	9.986131786743296e-01	2.000000000000000e+00

130	1.300000000000000e-10	-9.889196249957034e-01
	9.889196249957012e-01	-9.988897471792918e-01
	9.988897471793016e-01	2.000000000000000e+00

131	1.310000000000000e-10	-9.888951378709384e-01
	9.888951378709369e-01	-9.988644078872178e-01
	9.988644078872004e-01	2.000000000000000e+00

132	1.320000000000000e-10	-9.888823519926865e-01
	9.888823519926859e-01	-9.988524730437355e-01
	9.988524730437399e-01	2.000000000000000e+00

133	1.330000000000000e-10	-9.888751878474924e-01
	9.888751878474907e-01	-9.991330462644938e-01
	9.991330462645066e-01	2.000000000000000e+00

134	1.340000000000000e-10	-9.888523504430785e-01
	9.888523504430772e-01	-9.990645927881854e-01
	9.990645927881692e-01	2.000000000000000e+00

135	1.350000000000000e-10	-9.888373240795938e-01
	9.888373240795932e-01	-9.988153927718127e-01
	9.988153927718143e-01	2.000000000000000e+00

136	1.360000000000000e-10	-9.888238086979676e-01
	9.888238086979663e-01	-9.993397133633285e-01
	9.993397133633417e-01	2.000000000000000e+00

137	1.370000000000000e-10	-9.888049383318021e-01
	9.888049383318008e-01	-9.992738593633068e-01
	9.992738593632933e-01	2.000000000000000e+00

138	1.380000000000000e-10	-9.888003418276828e-01
	9.888003418276827e-01	-9.991461635260126e-01
	9.991461635260105e-01	2.000000000000000e+00

