CITIFILE A.01.01
#Momentum: B.11.40.482 (*) built: Dec  2 2014 
#Momentum Date and Time: Wed Feb 26 09:49:54 2020

NAME Momentum.SP

#  mode: MW    project: proj

CONSTANT NBR_OF_PORTS 2

CONSTANT NORMALIZATION 1

VAR freq MAG 101

DATA S[1,1] RI
DATA S[1,2] RI
DATA S[2,1] RI
DATA S[2,2] RI
DATA S_50[1,1] RI
DATA S_50[1,2] RI
DATA S_50[2,1] RI
DATA S_50[2,2] RI
DATA S_Z0[1,1] RI
DATA S_Z0[1,2] RI
DATA S_Z0[2,1] RI
DATA S_Z0[2,2] RI
DATA GAMMA[1] RI
DATA Z0[1] RI
DATA Z0[2] RI
DATA PORTZ[1] RI
DATA PORTZ[2] RI

VAR_LIST_BEGIN
	 5000000000
	 5200000000
	 5400000000
	 5600000000
	 5800000000
	 6000000000
	 6200000000
	 6400000000
	 6600000000
	 6800000000
	 7000000000
	 7200000000
	 7400000000
	 7600000000
	 7800000000
	 8000000000
	 8200000000
	 8400000000
	 8600000000
	 8800000000
	 9000000000
	 9200000000
	 9400000000
	 9600000000
	 9800000000
	 1e+010
	 1.02e+010
	 1.04e+010
	 1.06e+010
	 1.08e+010
	 1.1e+010
	 1.12e+010
	 1.14e+010
	 1.16e+010
	 1.18e+010
	 1.2e+010
	 1.22e+010
	 1.24e+010
	 1.26e+010
	 1.28e+010
	 1.3e+010
	 1.32e+010
	 1.34e+010
	 1.36e+010
	 1.38e+010
	 1.4e+010
	 1.42e+010
	 1.44e+010
	 1.46e+010
	 1.48e+010
	 1.5e+010
	 1.52e+010
	 1.54e+010
	 1.56e+010
	 1.58e+010
	 1.6e+010
	 1.62e+010
	 1.64e+010
	 1.66e+010
	 1.68e+010
	 1.7e+010
	 1.72e+010
	 1.74e+010
	 1.76e+010
	 1.78e+010
	 1.8e+010
	 1.82e+010
	 1.84e+010
	 1.86e+010
	 1.88e+010
	 1.9e+010
	 1.92e+010
	 1.94e+010
	 1.96e+010
	 1.98e+010
	 2e+010
	 2.02e+010
	 2.04e+010
	 2.06e+010
	 2.08e+010
	 2.1e+010
	 2.12e+010
	 2.14e+010
	 2.16e+010
	 2.18e+010
	 2.2e+010
	 2.22e+010
	 2.24e+010
	 2.26e+010
	 2.28e+010
	 2.3e+010
	 2.32e+010
	 2.34e+010
	 2.36e+010
	 2.38e+010
	 2.4e+010
	 2.42e+010
	 2.44e+010
	 2.46e+010
	 2.48e+010
	 2.5e+010
VAR_LIST_END

BEGIN
	-0.187648049,	-0.123237873
	-0.197195127,	-0.118365288
	-0.206286418,	-0.112654267
	-0.214839938,	-0.106127149
	-0.222771117,	-0.0988117129
	-0.22999291,	-0.0907417824
	-0.2364155,	-0.081957789
	-0.241945925,	-0.0725074921
	-0.246487711,	-0.062446907
	-0.249940413,	-0.0518414659
	-0.252199148,	-0.0407674944
	-0.253154124,	-0.0293140759
	-0.252690204,	-0.0175853981
	-0.250686566,	-0.00570371217
	-0.247016547,	 0.00618694993
	-0.241547829,	 0.017916098
	-0.234143168,	 0.029280923
	-0.224662012,	 0.0400389643
	-0.212963485,	 0.0498989774
	-0.198911501,	 0.058509646
	-0.182383066,	 0.065445797
	-0.163281399,	 0.0701918721
	-0.141556176,	 0.0721227182
	-0.117234182,	 0.0704824101
	-0.0904648644,	 0.0643631389
	-0.0615863728,	 0.0526884591
	-0.0312205626,	 0.0342107288
	 -0.000398100917 ,	 0.00753512899 
	 0.0292765776,	-0.0287986551
	 0.0554398081,	-0.0761431555
	 0.0747988427,	-0.135427381
	 0.0830679999,	-0.206656829
	 0.0751649264,	-0.288238088
	 0.0458621953,	-0.37626384
	-0.00898230008,	-0.46409497
	-0.0907809262,	-0.542735872
	-0.196788729,	-0.602363832
	-0.319811419,	-0.634765326
	-0.449588531,	-0.635651544
	-0.575375569,	-0.605637878
	-0.688455475,	-0.549454434
	-0.783491407,	-0.474033981
	-0.858516561,	-0.386554011
	-0.914074175,	-0.293143578
	-0.952152188,	-0.198372075
	-0.975311801,	-0.105284795
	-0.986128215,	-0.0156950399
	-0.986901726,	 0.0694694694
	-0.979549668,	 0.149864271
	-0.965599455,	 0.225499673
	-0.946228585,	 0.296582131
	-0.922319947,	 0.363411415
	-0.894517759,	 0.426314089
	-0.86327571,	 0.485606002
	-0.828897486,	 0.541568104
	-0.791568352,	 0.594433691
	-0.751380301,	 0.644379993
	-0.708351662,	 0.691522704
	-0.662442924,	 0.735911204
	-0.613570214,	 0.777523428
	-0.561617777,	 0.81625977
	-0.506450871,	 0.851935662
	-0.447930469,	 0.884272901
	-0.385931327,	 0.912890132
	-0.320364986,	 0.937293462
	-0.251209413,	 0.956868899
	-0.17854665,	 0.970879326
	-0.10260942,	 0.978469964
	-0.0238359118,	 0.978687729
	 0.0570700347,	 0.970521002
	 0.139080237,	 0.952966778
	 0.220796552,	 0.925130531
	 0.300435455,	 0.886359399
	 0.375863233,	 0.83640039
	 0.4447012,	 0.775562498
	 0.504509915,	 0.704848087
	 0.553043541,	 0.626010278
	 0.588534571,	 0.541498078
	 0.60995462,	 0.454272718
	 0.617180598,	 0.367515262
	 0.61102116,	 0.284282106
	 0.593093422,	 0.207184263
	 0.56558388,	 0.138158717
	 0.530956137,	 0.0783680204
	 0.491671941,	 0.0282258076
	 0.449973115,	-0.0124854195
	 0.407746354,	-0.0444485498
	 0.366466327,	-0.0686399188
	 0.327200815,	-0.0861784509
	 0.290654293,	-0.0982094132
	 0.257229461,	-0.105825189
	 0.227093933,	-0.11001766
	 0.200241394,	-0.11165528
	 0.176543712,	-0.11147733
	 0.155792736,	-0.110098663
	 0.1377319,	-0.108020559
	 0.122079571,	-0.105644011
	 0.108545648,	-0.103283857
	 0.0968424632,	-0.101181741
	 0.086692271,	-0.0995182364
	 0.0778316923,	-0.0984230923
END
BEGIN
	 0.548737084,	-0.803234317
	 0.515433809,	-0.823408768
	 0.481235467,	-0.842383045
	 0.446158378,	-0.860136478
	 0.410214807,	-0.876647509
	 0.373412125,	-0.891893072
	 0.335752312,	-0.905847716
	 0.297231469,	-0.918482557
	 0.257839254,	-0.929764043
	 0.217558363,	-0.93965247
	 0.176363998,	-0.948100192
	 0.134223342,	-0.955049462
	 0.0910951167,	-0.960429791
	 0.0469292407,	-0.964154713
	 0.00166670694,	-0.966117812
	-0.0447601926,	-0.966187802
	-0.0924270814,	-0.964202445
	-0.141415822,	-0.959961025
	-0.191811468,	-0.953215037
	-0.243697102,	-0.943656759
	-0.297145504,	-0.930905339
	-0.352206036,	-0.914490167
	-0.408884467,	-0.89383157
	-0.467112477,	-0.868219544
	-0.52670237,	-0.836792488
	-0.587281057,	-0.798520522
	-0.648197657,	-0.752200945
	-0.7083953,	-0.696484352
	-0.766250648,	-0.629952205
	-0.819387677,	-0.551288731
	-0.86450787,	-0.459593173
	-0.897324756,	-0.35487488
	-0.912755453,	-0.238723362
	-0.905563257,	-0.115019347
	-0.871574937,	 0.00964635312
	-0.809311347,	 0.126338422
	-0.721407509,	 0.225287158
	-0.614910709,	 0.298301519
	-0.499918255,	 0.341069027
	-0.387021483,	 0.354136178
	-0.284813163,	 0.342135367
	-0.198538759,	 0.311894898
	-0.130098092,	 0.270498127
	-0.0788916842,	 0.223998142
	-0.0428734441,	 0.176906262
	-0.019413221,	 0.132223135
	-0.00585083219,	 0.0917248837
	 0.000217736285,	 0.0563039796
	 0.000833655591,	 0.0262667008
	 -0.00233083269 ,	 0.00155741393 
	-0.00793170332,	-0.0180870823
	-0.0148962926,	-0.033036781
	-0.0223673498,	-0.0437101333
	-0.0296524534,	-0.0505377727
	-0.0361830748,	-0.0539467998
	-0.0414816354,	-0.054354469
	-0.0451362097,	-0.0521692957
	-0.0467815488,	-0.0477965023
	-0.0460855425,	-0.0416464973
	-0.0427404772,	-0.0341455173
	-0.0364588059,	-0.0257479425
	-0.0269735177,	-0.0169499475
	-0.0140435557,	-0.00830409979
	 0.00253491434 ,	 -0.000434297315 
	 0.022910303,	 0.00595002276
	 0.0471492,	 0.0100421683
	 0.0752006275,	 0.0109317512
	 0.106850399,	 0.00760759999
	 0.141666379,	-0.00102447558
	 0.178937939,	-0.0161023179
	 0.217616772,	-0.0387393852
	 0.256271266,	-0.0699225933
	 0.293072216,	-0.110375606
	 0.325831093,	-0.160396346
	 0.352110704,	-0.219690752
	 0.369418091,	-0.287239023
	 0.375467574,	-0.361238457
	 0.368478671,	-0.439164033
	 0.347442812,	-0.517960803
	 0.312295053,	-0.594349459
	 0.263938959,	-0.665184456
	 0.204116451,	-0.727786343
	 0.135158303,	-0.780177843
	 0.0596803105,	-0.821186406
	-0.019705874,	-0.850416279
	-0.100618042,	-0.868125307
	-0.181042678,	-0.875052527
	-0.259392185,	-0.872239983
	-0.334499308,	-0.860876634
	-0.405571099,	-0.842178792
	-0.4721241,	-0.817308743
	-0.533915541,	-0.787326325
	-0.590879738,	-0.753166166
	-0.643074442,	-0.715632346
	-0.690637705,	-0.675404302
	-0.733755545,	-0.63304866
	-0.772638291,	-0.589033601
	-0.807503954,	-0.543743959
	-0.838567463,	-0.497495274
	-0.866033624,	-0.450546535
	-0.890093176,	-0.403111256
END
BEGIN
	 0.548737084,	-0.803234317
	 0.515433809,	-0.823408768
	 0.481235467,	-0.842383045
	 0.446158378,	-0.860136478
	 0.410214807,	-0.876647509
	 0.373412125,	-0.891893072
	 0.335752312,	-0.905847716
	 0.297231469,	-0.918482557
	 0.257839254,	-0.929764043
	 0.217558363,	-0.93965247
	 0.176363998,	-0.948100192
	 0.134223342,	-0.955049462
	 0.0910951167,	-0.960429791
	 0.0469292407,	-0.964154713
	 0.00166670694,	-0.966117812
	-0.0447601926,	-0.966187802
	-0.0924270814,	-0.964202445
	-0.141415822,	-0.959961025
	-0.191811468,	-0.953215037
	-0.243697102,	-0.943656759
	-0.297145504,	-0.930905339
	-0.352206036,	-0.914490167
	-0.408884467,	-0.89383157
	-0.467112477,	-0.868219544
	-0.52670237,	-0.836792488
	-0.587281057,	-0.798520522
	-0.648197657,	-0.752200945
	-0.7083953,	-0.696484352
	-0.766250648,	-0.629952205
	-0.819387677,	-0.551288731
	-0.86450787,	-0.459593173
	-0.897324756,	-0.35487488
	-0.912755453,	-0.238723362
	-0.905563257,	-0.115019347
	-0.871574937,	 0.00964635312
	-0.809311347,	 0.126338422
	-0.721407509,	 0.225287158
	-0.614910709,	 0.298301519
	-0.499918255,	 0.341069027
	-0.387021483,	 0.354136178
	-0.284813163,	 0.342135367
	-0.198538759,	 0.311894898
	-0.130098092,	 0.270498127
	-0.0788916842,	 0.223998142
	-0.0428734441,	 0.176906262
	-0.019413221,	 0.132223135
	-0.00585083219,	 0.0917248837
	 0.000217736285,	 0.0563039796
	 0.000833655591,	 0.0262667008
	 -0.00233083269 ,	 0.00155741393 
	-0.00793170332,	-0.0180870823
	-0.0148962926,	-0.033036781
	-0.0223673498,	-0.0437101333
	-0.0296524534,	-0.0505377727
	-0.0361830748,	-0.0539467998
	-0.0414816354,	-0.054354469
	-0.0451362097,	-0.0521692957
	-0.0467815488,	-0.0477965023
	-0.0460855425,	-0.0416464973
	-0.0427404772,	-0.0341455173
	-0.0364588059,	-0.0257479425
	-0.0269735177,	-0.0169499475
	-0.0140435557,	-0.00830409979
	 0.00253491434 ,	 -0.000434297315 
	 0.022910303,	 0.00595002276
	 0.0471492,	 0.0100421683
	 0.0752006275,	 0.0109317512
	 0.106850399,	 0.00760759999
	 0.141666379,	-0.00102447558
	 0.178937939,	-0.0161023179
	 0.217616772,	-0.0387393852
	 0.256271266,	-0.0699225933
	 0.293072216,	-0.110375606
	 0.325831093,	-0.160396346
	 0.352110704,	-0.219690752
	 0.369418091,	-0.287239023
	 0.375467574,	-0.361238457
	 0.368478671,	-0.439164033
	 0.347442812,	-0.517960803
	 0.312295053,	-0.594349459
	 0.263938959,	-0.665184456
	 0.204116451,	-0.727786343
	 0.135158303,	-0.780177843
	 0.0596803105,	-0.821186406
	-0.019705874,	-0.850416279
	-0.100618042,	-0.868125307
	-0.181042678,	-0.875052527
	-0.259392185,	-0.872239983
	-0.334499308,	-0.860876634
	-0.405571099,	-0.842178792
	-0.4721241,	-0.817308743
	-0.533915541,	-0.787326325
	-0.590879738,	-0.753166166
	-0.643074442,	-0.715632346
	-0.690637705,	-0.675404302
	-0.733755545,	-0.63304866
	-0.772638291,	-0.589033601
	-0.807503954,	-0.543743959
	-0.838567463,	-0.497495274
	-0.866033624,	-0.450546535
	-0.890093176,	-0.403111256
END
BEGIN
	-0.184404163,	-0.127708897
	-0.193920391,	-0.123269338
	-0.203008289,	-0.118005499
	-0.211588031,	-0.111937721
	-0.219577114,	-0.105091622
	-0.226890488,	-0.0974986563
	-0.233440254,	-0.0891966698
	-0.239135285,	-0.0802306172
	-0.243880862,	-0.070653466
	-0.247578205,	-0.0605273446
	-0.250123997,	-0.0499249931
	-0.251409913,	-0.0389315939
	-0.251322163,	-0.0276470815
	-0.249741135,	-0.0161890474
	-0.246541214,	-0.00469639786
	-0.241590925,	 0.00666605106
	-0.234753598,	 0.0177018051
	-0.225888907,	 0.0281754733
	-0.214855723,	 0.0378037732
	-0.201517048,	 0.0462444055
	-0.185748064,	 0.0530824444
	-0.167448887,	 0.0578140047
	-0.146564301,	 0.0598272192
	-0.123113693,	 0.0583812063
	-0.0972356289,	 0.0525849806
	-0.0692526165,	 0.0413804309
	-0.0397641862,	 0.0235394085
	-0.00977031604,	-0.00231428371
	 0.0191663507,	-0.037625288
	 0.0447368252,	-0.0837382792
	 0.0637166583,	-0.141589079
	 0.0718994155,	-0.211214145
	 0.064284301,	-0.291085788
	 0.0357106585,	-0.377405038
	-0.0179368686,	-0.463681906
	-0.0981104846,	-0.541091456
	-0.202185627,	-0.599965027
	-0.323155818,	-0.632180481
	-0.450973037,	-0.633446807
	-0.575076391,	-0.604285827
	-0.686864479,	-0.54927587
	-0.781038419,	-0.475184328
	-0.85560673,	-0.389044737
	-0.911050513,	-0.296880354
	-0.94928109,	-0.203193975
	-0.972783852,	-0.110996361
	-0.984066775,	-0.0220888517
	-0.985374002,	 0.0625984977
	-0.978577381,	 0.142710755
	-0.965167848,	 0.218243662
	-0.946293451,	 0.28938742
	-0.922812855,	 0.356425051
	-0.895349711,	 0.419666527
	-0.864339686,	 0.479411176
	-0.830069905,	 0.535923645
	-0.792710126,	 0.589420343
	-0.752337315,	 0.640060839
	-0.708955039,	 0.68794177
	-0.66250922,	 0.733091442
	-0.61290172,	 0.775464017
	-0.560003138,	 0.814932664
	-0.50366626,	 0.851281352
	-0.443741617,	 0.884195367
	-0.380096759,	 0.913251032
	-0.312640953,	 0.937905668
	-0.241357009,	 0.957489675
	-0.166341751,	 0.971203639
	-0.0878559254,	 0.978124741
	-0.00638284769,	 0.977228251
	 0.0773075226,	 0.967431099
	 0.162096472,	 0.94766488
	 0.246468974,	 0.916983886
	 0.328499126,	 0.87470853
	 0.405890375,	 0.820594953
	 0.476091083,	 0.755007831
	 0.536494933,	 0.679058756
	 0.584714745,	 0.594664576
	 0.618889137,	 0.504483248
	 0.637959191,	 0.411713133
	 0.641843425,	 0.319775504
	 0.631460992,	 0.231943576
	 0.608594213,	 0.150999363
	 0.575628,	 0.0789911576
	 0.535233892,	 0.0171299525
	 0.490070349,	-0.0341790308
	 0.442549907,	-0.0752063513
	 0.394696131,	-0.106718225
	 0.348085191,	-0.129790193
	 0.303853449,	-0.14564547
	 0.262745878,	-0.155530753
	 0.225183885,	-0.160631181
	 0.191337397,	-0.162020676
	 0.161191151,	-0.160638067
	 0.134600744,	-0.1572817
	 0.111337423,	-0.152615248
	 0.0911220979,	-0.147179827
	 0.0736501329,	-0.141408709
	 0.0586087523,	-0.135642655
	 0.0456889209,	-0.130144317
	 0.0345928238,	-0.125111085
	 0.0250386329,	-0.120686376
END
BEGIN
	-0.187648049,	-0.123237873
	-0.197195127,	-0.118365288
	-0.206286418,	-0.112654267
	-0.214839938,	-0.106127149
	-0.222771117,	-0.0988117129
	-0.22999291,	-0.0907417824
	-0.2364155,	-0.081957789
	-0.241945925,	-0.0725074921
	-0.246487711,	-0.062446907
	-0.249940413,	-0.0518414659
	-0.252199148,	-0.0407674944
	-0.253154124,	-0.0293140759
	-0.252690204,	-0.0175853981
	-0.250686566,	-0.00570371217
	-0.247016547,	 0.00618694993
	-0.241547829,	 0.017916098
	-0.234143168,	 0.029280923
	-0.224662012,	 0.0400389643
	-0.212963485,	 0.0498989774
	-0.198911501,	 0.058509646
	-0.182383066,	 0.065445797
	-0.163281399,	 0.0701918721
	-0.141556176,	 0.0721227182
	-0.117234182,	 0.0704824101
	-0.0904648644,	 0.0643631389
	-0.0615863728,	 0.0526884591
	-0.0312205626,	 0.0342107288
	 -0.000398100917 ,	 0.00753512899 
	 0.0292765776,	-0.0287986551
	 0.0554398081,	-0.0761431555
	 0.0747988427,	-0.135427381
	 0.0830679999,	-0.206656829
	 0.0751649264,	-0.288238088
	 0.0458621953,	-0.37626384
	-0.00898230008,	-0.46409497
	-0.0907809262,	-0.542735872
	-0.196788729,	-0.602363832
	-0.319811419,	-0.634765326
	-0.449588531,	-0.635651544
	-0.575375569,	-0.605637878
	-0.688455475,	-0.549454434
	-0.783491407,	-0.474033981
	-0.858516561,	-0.386554011
	-0.914074175,	-0.293143578
	-0.952152188,	-0.198372075
	-0.975311801,	-0.105284795
	-0.986128215,	-0.0156950399
	-0.986901726,	 0.0694694694
	-0.979549668,	 0.149864271
	-0.965599455,	 0.225499673
	-0.946228585,	 0.296582131
	-0.922319947,	 0.363411415
	-0.894517759,	 0.426314089
	-0.86327571,	 0.485606002
	-0.828897486,	 0.541568104
	-0.791568352,	 0.594433691
	-0.751380301,	 0.644379993
	-0.708351662,	 0.691522704
	-0.662442924,	 0.735911204
	-0.613570214,	 0.777523428
	-0.561617777,	 0.81625977
	-0.506450871,	 0.851935662
	-0.447930469,	 0.884272901
	-0.385931327,	 0.912890132
	-0.320364986,	 0.937293462
	-0.251209413,	 0.956868899
	-0.17854665,	 0.970879326
	-0.10260942,	 0.978469964
	-0.0238359118,	 0.978687729
	 0.0570700347,	 0.970521002
	 0.139080237,	 0.952966778
	 0.220796552,	 0.925130531
	 0.300435455,	 0.886359399
	 0.375863233,	 0.83640039
	 0.4447012,	 0.775562498
	 0.504509915,	 0.704848087
	 0.553043541,	 0.626010278
	 0.588534571,	 0.541498078
	 0.60995462,	 0.454272718
	 0.617180598,	 0.367515262
	 0.61102116,	 0.284282106
	 0.593093422,	 0.207184263
	 0.56558388,	 0.138158717
	 0.530956137,	 0.0783680204
	 0.491671941,	 0.0282258076
	 0.449973115,	-0.0124854195
	 0.407746354,	-0.0444485498
	 0.366466327,	-0.0686399188
	 0.327200815,	-0.0861784509
	 0.290654293,	-0.0982094132
	 0.257229461,	-0.105825189
	 0.227093933,	-0.11001766
	 0.200241394,	-0.11165528
	 0.176543712,	-0.11147733
	 0.155792736,	-0.110098663
	 0.1377319,	-0.108020559
	 0.122079571,	-0.105644011
	 0.108545648,	-0.103283857
	 0.0968424632,	-0.101181741
	 0.086692271,	-0.0995182364
	 0.0778316923,	-0.0984230923
END
BEGIN
	 0.548737084,	-0.803234317
	 0.515433809,	-0.823408768
	 0.481235467,	-0.842383045
	 0.446158378,	-0.860136478
	 0.410214807,	-0.876647509
	 0.373412125,	-0.891893072
	 0.335752312,	-0.905847716
	 0.297231469,	-0.918482557
	 0.257839254,	-0.929764043
	 0.217558363,	-0.93965247
	 0.176363998,	-0.948100192
	 0.134223342,	-0.955049462
	 0.0910951167,	-0.960429791
	 0.0469292407,	-0.964154713
	 0.00166670694,	-0.966117812
	-0.0447601926,	-0.966187802
	-0.0924270814,	-0.964202445
	-0.141415822,	-0.959961025
	-0.191811468,	-0.953215037
	-0.243697102,	-0.943656759
	-0.297145504,	-0.930905339
	-0.352206036,	-0.914490167
	-0.408884467,	-0.89383157
	-0.467112477,	-0.868219544
	-0.52670237,	-0.836792488
	-0.587281057,	-0.798520522
	-0.648197657,	-0.752200945
	-0.7083953,	-0.696484352
	-0.766250648,	-0.629952205
	-0.819387677,	-0.551288731
	-0.86450787,	-0.459593173
	-0.897324756,	-0.35487488
	-0.912755453,	-0.238723362
	-0.905563257,	-0.115019347
	-0.871574937,	 0.00964635312
	-0.809311347,	 0.126338422
	-0.721407509,	 0.225287158
	-0.614910709,	 0.298301519
	-0.499918255,	 0.341069027
	-0.387021483,	 0.354136178
	-0.284813163,	 0.342135367
	-0.198538759,	 0.311894898
	-0.130098092,	 0.270498127
	-0.0788916842,	 0.223998142
	-0.0428734441,	 0.176906262
	-0.019413221,	 0.132223135
	-0.00585083219,	 0.0917248837
	 0.000217736285,	 0.0563039796
	 0.000833655591,	 0.0262667008
	 -0.00233083269 ,	 0.00155741393 
	-0.00793170332,	-0.0180870823
	-0.0148962926,	-0.033036781
	-0.0223673498,	-0.0437101333
	-0.0296524534,	-0.0505377727
	-0.0361830748,	-0.0539467998
	-0.0414816354,	-0.054354469
	-0.0451362097,	-0.0521692957
	-0.0467815488,	-0.0477965023
	-0.0460855425,	-0.0416464973
	-0.0427404772,	-0.0341455173
	-0.0364588059,	-0.0257479425
	-0.0269735177,	-0.0169499475
	-0.0140435557,	-0.00830409979
	 0.00253491434 ,	 -0.000434297315 
	 0.022910303,	 0.00595002276
	 0.0471492,	 0.0100421683
	 0.0752006275,	 0.0109317512
	 0.106850399,	 0.00760759999
	 0.141666379,	-0.00102447558
	 0.178937939,	-0.0161023179
	 0.217616772,	-0.0387393852
	 0.256271266,	-0.0699225933
	 0.293072216,	-0.110375606
	 0.325831093,	-0.160396346
	 0.352110704,	-0.219690752
	 0.369418091,	-0.287239023
	 0.375467574,	-0.361238457
	 0.368478671,	-0.439164033
	 0.347442812,	-0.517960803
	 0.312295053,	-0.594349459
	 0.263938959,	-0.665184456
	 0.204116451,	-0.727786343
	 0.135158303,	-0.780177843
	 0.0596803105,	-0.821186406
	-0.019705874,	-0.850416279
	-0.100618042,	-0.868125307
	-0.181042678,	-0.875052527
	-0.259392185,	-0.872239983
	-0.334499308,	-0.860876634
	-0.405571099,	-0.842178792
	-0.4721241,	-0.817308743
	-0.533915541,	-0.787326325
	-0.590879738,	-0.753166166
	-0.643074442,	-0.715632346
	-0.690637705,	-0.675404302
	-0.733755545,	-0.63304866
	-0.772638291,	-0.589033601
	-0.807503954,	-0.543743959
	-0.838567463,	-0.497495274
	-0.866033624,	-0.450546535
	-0.890093176,	-0.403111256
END
BEGIN
	 0.548737084,	-0.803234317
	 0.515433809,	-0.823408768
	 0.481235467,	-0.842383045
	 0.446158378,	-0.860136478
	 0.410214807,	-0.876647509
	 0.373412125,	-0.891893072
	 0.335752312,	-0.905847716
	 0.297231469,	-0.918482557
	 0.257839254,	-0.929764043
	 0.217558363,	-0.93965247
	 0.176363998,	-0.948100192
	 0.134223342,	-0.955049462
	 0.0910951167,	-0.960429791
	 0.0469292407,	-0.964154713
	 0.00166670694,	-0.966117812
	-0.0447601926,	-0.966187802
	-0.0924270814,	-0.964202445
	-0.141415822,	-0.959961025
	-0.191811468,	-0.953215037
	-0.243697102,	-0.943656759
	-0.297145504,	-0.930905339
	-0.352206036,	-0.914490167
	-0.408884467,	-0.89383157
	-0.467112477,	-0.868219544
	-0.52670237,	-0.836792488
	-0.587281057,	-0.798520522
	-0.648197657,	-0.752200945
	-0.7083953,	-0.696484352
	-0.766250648,	-0.629952205
	-0.819387677,	-0.551288731
	-0.86450787,	-0.459593173
	-0.897324756,	-0.35487488
