CITIFILE A.01.01
#Momentum: B.11.40.482 (*) built: Dec  2 2014 
#Momentum Date and Time: Wed Feb 26 09:49:27 2020

NAME PortSet1

CONSTANT NBR_OF_PORTS 2

VAR freq MAG 2

DATA GAMMA_1[1] RI
DATA Z0_1[1,1] RI
DATA LAMBADAI_1[1,1] RI

VAR_LIST_BEGIN
	 5000000000
	 2.5e+010
VAR_LIST_END

BEGIN
	 0 ,	 0 
	 0 ,	 0 
END
BEGIN
	 50 ,	 0 
	 50 ,	 0 
END
BEGIN
	 0 ,	 0 
	 0 ,	 0 
END
CITIFILE A.01.01
NAME PortSet2/TwoP0_Dsolver_data/first_odd_mode_is_1/most_even_mode_is_1/PMLG4/LS0

VAR freq MAG 7

DATA GAMMA_2[1] RI
DATA Z0_2[1,1] RI
DATA LAMBADAI_2[1,1] RI
DATA Zcir_2[1,1] RI
DATA Ycir_2[1,1] RI

VAR_LIST_BEGIN
	 5000000000
	 5050000000
	 5100000000
	 5150000000
	 1.03e+010
	 2.06e+010
	 2.5e+010
VAR_LIST_END

BEGIN
	 0.315183388,	 229.1548396
	 0.3183442263,	 231.4483194
	 0.3215052912,	 233.7418502
	 0.3246666018,	 236.0354324
	 0.6517708621,	 472.601085
	 1.3174878061360671 ,	 948.33158967762051 
	 1.6074236623649252 ,	 1152.8491974088959 
END
BEGIN
	 60.244303572413365 ,	 0.082860222130402172 
	 60.244188996083594 ,	 0.082861693118424729 
	 60.244074482175812 ,	 0.082863176400104641 
	 60.243960066151836 ,	 0.082864667404260253 
	 60.234320539645658 ,	 0.083065267033747128 
	 60.245750996140437 ,	 0.083675581178690742 
	 60.268380221446655 ,	 0.083999178408740549 
END
BEGIN
	 0.315183388,	 229.1548396
	 0.3183442263,	 231.4483194
	 0.3215052912,	 233.7418502
	 0.3246666018,	 236.0354324
	 0.6517708621,	 472.601085
	 1.3174878061360671 ,	 948.33158967762063 
	 1.6074236623649247 ,	 1152.8491974088956 
END
BEGIN
	 4.85200330913038e-007 ,	 1.16644789309557e-009 
	 5.04642632612184e-007 ,	 1.16645540861444e-009 
	 5.21697411721977e-007 ,	 1.16646298898644e-009 
	 5.42004900586091e-007 ,	 1.16647063507035e-009 
	 5.94510135705495e-006 ,	 1.16759394757736e-009 
	 5.53323926063554e-005 ,	 1.17168200859533e-009 
	 0.0001020226991722 ,	 1.17411965975637e-009 
END
BEGIN
	 3.9418949187519372 ,	 4.5613369757443366e-008 
	 3.9814334849890107 ,	 4.5613837140127173e-008 
	 4.0209751250341634 ,	 4.5614306967510909e-008 
	 4.0605198551277439 ,	 4.5614779219511481e-008 
	 8.152641302482122 ,	 4.5673319994876858e-008 
	 16.474905627531989 ,	 4.5815840528603914e-008 
	 20.091596969113485 ,	 4.5876686759398442e-008 
END
