CITIFILE A.01.01
#Momentum: B.11.40.482 (*) built: Dec  2 2014 
#Momentum Date and Time: Tue Mar 24 16:47:42 2020

NAME Momentum.SP

#  mode: MW    project: proj

CONSTANT NBR_OF_PORTS 2

CONSTANT NORMALIZATION 1

VAR freq MAG 151

DATA S[1,1] RI
DATA S[1,2] RI
DATA S[2,1] RI
DATA S[2,2] RI
DATA S_50[1,1] RI
DATA S_50[1,2] RI
DATA S_50[2,1] RI
DATA S_50[2,2] RI
DATA S_Z0[1,1] RI
DATA S_Z0[1,2] RI
DATA S_Z0[2,1] RI
DATA S_Z0[2,2] RI
DATA GAMMA[1] RI
DATA GAMMA[2] RI
DATA Z0[1] RI
DATA Z0[2] RI
DATA PORTZ[1] RI
DATA PORTZ[2] RI

VAR_LIST_BEGIN
	 5000000000
	 5100000000
	 5200000000
	 5300000000
	 5400000000
	 5500000000
	 5600000000
	 5700000000
	 5800000000
	 5900000000
	 6000000000
	 6100000000
	 6200000000
	 6300000000
	 6400000000
	 6500000000
	 6600000000
	 6700000000
	 6800000000
	 6900000000
	 7000000000
	 7100000000
	 7200000000
	 7300000000
	 7400000000
	 7500000000
	 7600000000
	 7700000000
	 7800000000
	 7900000000
	 8000000000
	 8100000000
	 8200000000
	 8300000000
	 8400000000
	 8500000000
	 8600000000
	 8700000000
	 8800000000
	 8900000000
	 9000000000
	 9100000000
	 9200000000
	 9300000000
	 9400000000
	 9500000000
	 9600000000
	 9700000000
	 9800000000
	 9900000000
	 1e+010
	 1.01e+010
	 1.02e+010
	 1.03e+010
	 1.04e+010
	 1.05e+010
	 1.06e+010
	 1.07e+010
	 1.08e+010
	 1.09e+010
	 1.1e+010
	 1.11e+010
	 1.12e+010
	 1.13e+010
	 1.14e+010
	 1.15e+010
	 1.16e+010
	 1.17e+010
	 1.18e+010
	 1.19e+010
	 1.2e+010
	 1.21e+010
	 1.22e+010
	 1.23e+010
	 1.24e+010
	 1.25e+010
	 1.26e+010
	 1.27e+010
	 1.28e+010
	 1.29e+010
	 1.3e+010
	 1.31e+010
	 1.32e+010
	 1.33e+010
	 1.34e+010
	 1.35e+010
	 1.36e+010
	 1.37e+010
	 1.38e+010
	 1.39e+010
	 1.4e+010
	 1.41e+010
	 1.42e+010
	 1.43e+010
	 1.44e+010
	 1.45e+010
	 1.46e+010
	 1.47e+010
	 1.48e+010
	 1.49e+010
	 1.5e+010
	 1.51e+010
	 1.52e+010
	 1.53e+010
	 1.54e+010
	 1.55e+010
	 1.56e+010
	 1.57e+010
	 1.58e+010
	 1.59e+010
	 1.6e+010
	 1.61e+010
	 1.62e+010
	 1.63e+010
	 1.64e+010
	 1.65e+010
	 1.66e+010
	 1.67e+010
	 1.68e+010
	 1.69e+010
	 1.7e+010
	 1.71e+010
	 1.72e+010
	 1.73e+010
	 1.74e+010
	 1.75e+010
	 1.76e+010
	 1.77e+010
	 1.78e+010
	 1.79e+010
	 1.8e+010
	 1.81e+010
	 1.82e+010
	 1.83e+010
	 1.84e+010
	 1.85e+010
	 1.86e+010
	 1.87e+010
	 1.88e+010
	 1.89e+010
	 1.9e+010
	 1.91e+010
	 1.92e+010
	 1.93e+010
	 1.94e+010
	 1.95e+010
	 1.96e+010
	 1.97e+010
	 1.98e+010
	 1.99e+010
	 2e+010
VAR_LIST_END

BEGIN
	-0.350668789,	 0.655096243
	-0.255940469,	 0.701030323
	-0.144133903,	 0.725209355
	-0.0131468677,	 0.714069556
	 0.135499543,	 0.63372056
	 0.249313874,	 0.39050975
	-0.0914350139,	-0.0196285628
	-0.611771021,	 0.487408369
	-0.346630274,	 0.894786955
	-0.0796668319,	 0.985946029
	 0.119866385,	 0.987347955
	 0.279826959,	 0.955469089
	 0.415674277,	 0.904913296
	 0.534496414,	 0.84032165
	 0.639399117,	 0.763487326
	 0.731469756,	 0.67529998
	 0.81064938,	 0.576413026
	 0.876189862,	 0.46747843
	 0.926826463,	 0.349357779
	 0.960933984,	 0.223226844
	 0.976623231,	 0.090719471
	 0.971871928,	-0.045850403
	 0.944733738,	-0.183405481
	 0.893623519,	-0.317933021
	 0.817735207,	-0.444424338
	 0.71755083,	-0.557026214
	 0.595401238,	-0.649419039
	 0.455846746,	-0.715592905
	 0.305804019,	-0.750814198
	 0.153894497,	-0.752849664
	 0.00933051357,	-0.722703682
	-0.119666247,	-0.66473313
	-0.227323333,	-0.585821075
	-0.311162585,	-0.493980611
	-0.371916692,	-0.39666297
	-0.412680467,	-0.299514524
	-0.437743456,	-0.205815207
	-0.451363841,	-0.11646199
	-0.456812489,	-0.0304168271
	-0.455802906,	 0.0545298592
	-0.448210945,	 0.140972581
	-0.432018148,	 0.23104747
	-0.403706724,	 0.325605641
	-0.358756403,	 0.42354767
	-0.292684407,	 0.521235963
	-0.202256582,	 0.612509029
	-0.0867730189,	 0.689287769
	 0.0509810539,	 0.742851441
	 0.204592049,	 0.765620545
	 0.364828774,	 0.752787729
	 0.521258185,	 0.703301885
	 0.663992562,	 0.619851773
	 0.785110496,	 0.508029213
	 0.87933708,	 0.37507769
	 0.944078672,	 0.228649435
	 0.97896009,	 0.0759410714
	 0.985222577,	-0.0768215584
	 0.965136881,	-0.224523318
	 0.921512955,	-0.363174411
	 0.857393634,	-0.489710235
	 0.775876039,	-0.601813956
	 0.680017505,	-0.697764126
	 0.572774014,	-0.77633984
	 0.457080788,	-0.836655256
	 0.335775367,	-0.878201519
	 0.211725556,	-0.900755988
	 0.087733972,	-0.904452576
	-0.0334321481,	-0.88977464
	-0.149085218,	-0.857575853
	-0.256622184,	-0.809138732
	-0.353689553,	-0.746154177
	-0.438241611,	-0.670700434
	-0.508592384,	-0.585244318
	-0.563602544,	-0.492490905
	-0.602660118,	-0.395329809
	-0.625779185,	-0.296647202
	-0.633557794,	-0.199190451
	-0.627116838,	-0.105426897
	-0.608019151,	-0.017410771
	-0.578114177,	 0.0632599052
	-0.539405898,	 0.135539607
	-0.493879909,	 0.198883724
	-0.443403429,	 0.25320027
	-0.389618267,	 0.29878329
	-0.33386358,	 0.336162895
	-0.277169628,	 0.366048
	-0.220232816,	 0.389185223
	-0.163480712,	 0.406279838
	-0.107117122,	 0.417936786
	-0.0511715768,	 0.424594848
	 0.00439699769,	 0.426505695
	 0.0596582147,	 0.423770253
	 0.114635512,	 0.416291545
	 0.169259136,	 0.403852558
	 0.223313161,	 0.386142504
	 0.276438692,	 0.362816301
	 0.328081132,	 0.333572698
	 0.377540947,	 0.298121547
	 0.423971267,	 0.256358885
	 0.466425713,	 0.208341401
	 0.503899198,	 0.154278692
	 0.535370061,	 0.0946318181
	 0.559884271,	 0.0300453999
	 0.576560115,	-0.0386217773
	 0.58466619,	-0.110358221
	 0.583621731,	-0.184005434
	 0.573026418,	-0.25831015
	 0.552721598,	-0.331951999
	 0.52270311,	-0.403592711
	 0.483163874,	-0.471911497
	 0.43450571,	-0.535616473
	 0.377256241,	-0.593487116
	 0.312098732,	-0.644348125
	 0.239817784,	-0.687121879
	 0.161339475,	-0.72078439
	 0.077648013,	-0.744366759
	-0.010188337,	-0.756891366
	-0.100986172,	-0.757351164
	-0.193409607,	-0.744591701
	-0.285900239,	-0.717144913
	-0.376336787,	-0.672962698
	-0.461490356,	-0.608787011
	-0.534952564,	-0.519215692
	-0.580901561,	-0.395291389
	-0.550480578,	-0.231081049
	-0.315067306,	-0.1333853
	-0.178724178,	-0.503921616
	-0.542345747,	-0.635964596
	-0.770865799,	-0.489984058
	-0.881335513,	-0.312662859
	-0.932182282,	-0.136357189
	-0.942050273,	 0.0379919607
	-0.914744,	 0.209819743
	-0.848734651,	 0.375105688
	-0.741321832,	 0.525258377
	-0.592179363,	 0.646575128
	-0.407795283,	 0.721255271
	-0.205758266,	 0.732074693
	-0.0153297015,	 0.671245683
	 0.130504929,	 0.5493051
	 0.209445823,	 0.395129457
	 0.219912904,	 0.243917683
	 0.178328175,	 0.122327525
	 0.107977731,	 0.0418756101
	 0.0292295639,	 0.00158031761
	-0.0442254226,	-0.0059827326
	-0.105023539,	 0.0100923848
	-0.15025623,	 0.0415284686
	-0.179631784,	 0.081693984
	-0.194239777,	 0.125584624
	-0.195773629,	 0.169559293
END
BEGIN
	 0.589308001,	 0.315166369
	 0.624386775,	 0.227742279
	 0.659384372,	 0.130889183
	 0.698768492,	 0.0127002423
	 0.743385885,	-0.159440298
	 0.74298474,	-0.478286796
	 0.280063771,	-0.947203673
	-0.368305403,	-0.481624373
	-0.235030438,	-0.0980580374
	-0.101795974,	-0.0128556199
	-0.0359038179,	 0.000568311328
	 -0.00756515417 ,	 -0.00125151661 
	 0.000681189274 ,	 -0.00371574014 
	 -0.00197203818 ,	 -0.0022648415 
	-0.0101851318,	 0.00472420758
	-0.0204301868,	 0.0178320994
	-0.0300496095,	 0.0371701139
	-0.0367887469,	 0.0625462571
	-0.0385591187,	 0.0934821834
	-0.0333136782,	 0.129148492
	-0.019015018,	 0.168264396
	 0.00631205723,	 0.208944425
	 0.0444426835,	 0.248571034
	 0.0966922209,	 0.283656049
	 0.163522469,	 0.309811677
	 0.244051423,	 0.321891054
	 0.335509682,	 0.314405969
	 0.43285991,	 0.282282658
	 0.528749875,	 0.221988899
	 0.614110216,	 0.132595778
	 0.679344448,	 0.016664046
	 0.715941541,	-0.119630109
	 0.718044141,	-0.267247795
	 0.683302171,	-0.415711711
	 0.612986765,	-0.554711463
	 0.511295943,	-0.675359941
	 0.384328989,	-0.770805479
	 0.23919725,	-0.836329326
	 0.083329562,	-0.869127526
	-0.0757973774,	-0.867924057
	-0.230705665,	-0.832771875
	-0.373901995,	-0.765089918
	-0.497867027,	-0.667871431
	-0.595488971,	-0.546003144
	-0.66056143,	-0.406641209
	-0.68887183,	-0.259111378
	-0.679262249,	-0.11427132
	-0.634413979,	 0.0167489892
	-0.560871059,	 0.124291331
	-0.468153222,	 0.201763012
	-0.367083495,	 0.246584797
	-0.267995522,	 0.260133145
	-0.179280165,	 0.246858473
	-0.106691548,	 0.212999599
	-0.0533065346,	 0.165339463
	-0.0199735178,	 0.110293298
	-0.00591650262,	 0.0533868863
	-0.00932938823,	-0.000921543702
	-0.0278443274,	-0.0492089089
	-0.0588526426,	-0.0889456008
	-0.0996919516,	-0.118327175
	-0.147742178,	-0.136121259
	-0.200452914,	-0.141527355
	-0.255348497,	-0.134133557
	-0.31000532,	-0.113827423
	-0.362048634,	-0.0808333147
	-0.409141513,	-0.0356771696
	-0.449008351,	 0.0207706354
	-0.479481474,	 0.0872760826
	-0.49852892,	 0.16218244
	-0.504379636,	 0.243449058
	-0.495606457,	 0.328662886
	-0.471240956,	 0.415041214
	-0.430842599,	 0.499596511
	-0.37461988,	 0.579195652
	-0.303423314,	 0.650752011
	-0.218756279,	 0.71137491
	-0.12272225,	 0.758525688
	-0.0179010071,	 0.790146623
	 0.0927255345,	 0.804772096
	 0.206008359,	 0.801584045
	 0.318752194,	 0.780423592
	 0.427859545,	 0.741740178
	 0.530464337,	 0.686515668
	 0.623989274,	 0.616221209
	 0.70623615,	 0.532677466
	 0.775418988,	 0.437975703
	 0.830153144,	 0.33439895
	 0.869457471,	 0.224339454
	 0.892751438,	 0.110224093
	 0.899824462,	-0.00549770625
	 0.890811139,	-0.120444205
	 0.866198964,	-0.232318072
	 0.826781415,	-0.338961224
	 0.773652062,	-0.438376974
	 0.708145606,	-0.528801421
	 0.631864043,	-0.60865883
	 0.54655617,	-0.676728137
	 0.454142245,	-0.732028884
	 0.356634195,	-0.773913314
	 0.256045353,	-0.802083438
	 0.154398715,	-0.81654584
	 0.053595761,	-0.817610217
	-0.0445549769,	-0.80586696
	-0.138445691,	-0.782137165
	-0.226659598,	-0.747444624
	-0.30802156,	-0.702957426
	-0.381546542,	-0.64992479
	-0.446520154,	-0.589667529
	-0.502446018,	-0.523496063
	-0.548992248,	-0.452703728
	-0.586038039,	-0.37851294
	-0.613606836,	-0.302086465
	-0.631853626,	-0.2244486
	-0.641009547,	-0.146537308
	-0.641392561,	-0.0691262177
	-0.63338226,	 0.00718049928
	-0.617329446,	 0.0819863579
	-0.593541463,	 0.155175061
	-0.562144506,	 0.227085423
	-0.522847553,	 0.298718224
	-0.474259792,	 0.372383599
	-0.412042377,	 0.452581536
	-0.322531558,	 0.547413147
	-0.159285884,	 0.661986228
	 0.203580547,	 0.688712382
	 0.458823068,	 0.225158903
	 0.201750654,	-0.0225470518
	 0.062783459,	-0.0151371157
	 0.019169305,	 0.000971753029
	 0.00537222365,	-0.00516292764
	-0.00593723817,	-0.0312068477
	-0.0288037079,	-0.0711607444
	-0.0727109958,	-0.117283385
	-0.144426759,	-0.158844343
	-0.246639805,	-0.180993885
	-0.374445628,	-0.165415627
	-0.511418483,	-0.0947004247
	-0.629302193,	 0.0388669918
	-0.696027214,	 0.224557321
	-0.69015545,	 0.433251569
	-0.611003525,	 0.62946269
	-0.475899499,	 0.78626244
	-0.309003247,	 0.891898796
	-0.13168168,	 0.947145712
	 0.0414204008,	 0.959288805
	 0.201941945,	 0.937346367
	 0.345941977,	 0.889602152
	 0.472144149,	 0.822760246
	 0.580560218,	 0.742003536
	 0.67188404,	 0.651220867
END
BEGIN
	 0.589308001,	 0.315166369
	 0.624386775,	 0.227742279
	 0.659384372,	 0.130889183
	 0.698768492,	 0.0127002423
	 0.743385885,	-0.159440298
	 0.74298474,	-0.478286796
	 0.280063771,	-0.947203673
	-0.368305403,	-0.481624373
	-0.235030438,	-0.0980580374
	-0.101795974,	-0.0128556199
	-0.0359038179,	 0.000568311328
	 -0.00756515417 ,	 -0.00125151661 
	 0.000681189274 ,	 -0.00371574014 
	 -0.00197203818 ,	 -0.0022648415 
	-0.0101851318,	 0.00472420758
	-0.0204301868,	 0.0178320994
	-0.0300496095,	 0.0371701139
	-0.0367887469,	 0.0625462571
	-0.0385591187,	 0.0934821834
	-0.0333136782,	 0.129148492
	-0.019015018,	 0.168264396
	 0.00631205723,	 0.208944425
	 0.0444426835,	 0.248571034
	 0.0966922209,	 0.283656049
	 0.163522469,	 0.309811677
	 0.244051423,	 0.321891054
	 0.335509682,	 0.314405969
	 0.43285991,	 0.282282658
	 0.528749875,	 0.221988899
	 0.614110216,	 0.132595778
	 0.679344448,	 0.016664046
	 0.715941541,	-0.119630109
	 0.718044141,	-0.267247795
	 0.683302171,	-0.415711711
	 0.612986765,	-0.554711463
	 0.511295943,	-0.675359941
	 0.384328989,	-0.770805479
	 0.23919725,	-0.836329326
	 0.083329562,	-0.869127526
	-0.0757973774,	-0.867924057
	-0.230705665,	-0.832771875
	-0.373901995,	-0.765089918
	-0.497867027,	-0.667871431
	-0.595488971,	-0.546003144
	-0.66056143,	-0.406641209
	-0.68887183,	-0.259111378
	-0.679262249,	-0.11427132
	-0.634413979,	 0.0167489892
	-0.560871059,	 0.124291331
	-0.468153222,	 0.201763012
	-0.367083495,	 0.246584797
	-0.267995522,	 0.260133145
	-0.179280165,	 0.246858473
	-0.106691548,	 0.212999599
	-0.0533065346,	 0.165339463
	-0.0199735178,	 0.110293298
	-0.00591650262,	 0.0533868863
	-0.00932938823,	-0.000921543702
	-0.0278443274,	-0.0492089089
	-0.0588526426,	-0.0889456008
	-0.0996919516,	-0.118327175
	-0.147742178,	-0.136121259
	-0.200452914,	-0.141527355
	-0.255348497,	-0.134133557
	-0.31000532,	-0.113827423
	-0.362048634,	-0.0808333147
	-0.409141513,	-0.0356771696
	-0.449008351,	 0.0207706354
	-0.479481474,	 0.0872760826
	-0.49852892,	 0.16218244
	-0.504379636,	 0.243449058
	-0.495606457,	 0.328662886
	-0.471240956,	 0.415041214
	-0.430842599,	 0.499596511
	-0.37461988,	 0.579195652
	-0.303423314,	 0.650752011
	-0.218756279,	 0.71137491
	-0.12272225,	 0.758525688
	-0.0179010071,	 0.790146623
	 0.0927255345,	 0.804772096
	 0.206008359,	 0.801584045
	 0.318752194,	 0.780423592
	 0.427859545,	 0.741740178
	 0.530464337,	 0.686515668
	 0.623989274,	 0.616221209
	 0.70623615,	 0.532677466
	 0.775418988,	 0.437975703
	 0.830153144,	 0.33439895
	 0.869457471,	 0.224339454
	 0.892751438,	 0.110224093
	 0.899824462,	-0.00549770625
	 0.890811139,	-0.120444205
	 0.866198964,	-0.232318072
	 0.826781415,	-0.338961224
	 0.773652062,	-0.438376974
	 0.708145606,	-0.528801421
	 0.631864043,	-0.60865883
	 0.54655617,	-0.676728137
	 0.454142245,	-0.732028884
	 0.356634195,	-0.773913314
	 0.256045353,	-0.802083438
	 0.154398715,	-0.81654584
	 0.053595761,	-0.817610217
	-0.0445549769,	-0.80586696
	-0.138445691,	-0.782137165
	-0.226659598,	-0.747444624
	-0.30802156,	-0.702957426
	-0.381546542,	-0.64992479
	-0.446520154,	-0.589667529
	-0.502446018,	-0.523496063
	-0.548992248,	-0.452703728
	-0.586038039,	-0.37851294
	-0.613606836,	-0.302086465
	-0.631853626,	-0.2244486
	-0.641009547,	-0.146537308
	-0.641392561,	-0.0691262177
	-0.63338226,	 0.00718049928
	-0.617329446,	 0.0819863579
	-0.593541463,	 0.155175061
	-0.562144506,	 0.227085423
	-0.522847553,	 0.298718224
	-0.474259792,	 0.372383599
	-0.412042377,	 0.452581536
	-0.322531558,	 0.547413147
	-0.159285884,	 0.661986228
	 0.203580547,	 0.688712382
	 0.458823068,	 0.225158903
	 0.201750654,	-0.0225470518
	 0.062783459,	-0.0151371157
	 0.019169305,	 0.000971753029
	 0.00537222365,	-0.00516292764
	-0.00593723817,	-0.0312068477
	-0.0288037079,	-0.0711607444
	-0.0727109958,	-0.117283385
	-0.144426759,	-0.158844343
	-0.246639805,	-0.180993885
	-0.374445628,	-0.165415627
	-0.511418483,	-0.0947004247
	-0.629302193,	 0.0388669918
	-0.696027214,	 0.224557321
	-0.69015545,	 0.433251569
	-0.611003525,	 0.62946269
	-0.475899499,	 0.78626244
	-0.309003247,	 0.891898796
	-0.13168168,	 0.947145712
	 0.0414204008,	 0.959288805
	 0.201941945,	 0.937346367
	 0.345941977,	 0.889602152
	 0.472144149,	 0.822760246
	 0.580560218,	 0.742003536
	 0.67188404,	 0.651220867
END
BEGIN
	-0.350669305,	 0.655095986
	-0.255941406,	 0.701030005
	-0.144134291,	 0.725209309
	-0.0131475973,	 0.714069577
	 0.135497954,	 0.63372094
	 0.249311674,	 0.39051121
	-0.0914361384,	-0.0196246912
	-0.611768742,	 0.487411382
	-0.346628136,	 0.894787888
	-0.0796645391,	 0.985946322
	 0.119868032,	 0.987347871
	 0.279828288,	 0.955468828
	 0.415676041,	 0.904912637
	 0.534497827,	 0.840320926
	 0.639400708,	 0.763486208
	 0.731471232,	 0.675298642
	 0.810650917,	 0.576411201
	 0.876191292,	 0.4674762
	 0.926827745,	 0.349355026
	 0.960935036,	 0.223223408
	 0.976623862,	 0.0907155562
	 0.971871995,	-0.0458550384
	 0.944733028,	-0.183410733
	 0.893621758,	-0.317938938
	 0.817732088,	-0.444430795
	 0.717545967,	-0.557033069
	 0.595394687,	-0.64942556
	 0.455837924,	-0.715598995
	 0.305792939,	-0.750819154
	 0.15388153,	-0.752852744
	 0.00931595195,	-0.722704309
	-0.119682481,	-0.664730673
	-0.227340584,	-0.585814896
	-0.311179416,	-0.493970611
	-0.371932458,	-0.396648941
	-0.412694148,	-0.299496702
	-0.437754289,	-0.205793745
	-0.451370971,	-0.116437373
	-0.45681509,	-0.0303903283
	-0.45580039,	 0.0545588013
	-0.448202782,	 0.141002003
	-0.432003989,	 0.231076347
	-0.403686403,	 0.325632781
	-0.358730061,	 0.423571683
	-0.292652665,	 0.521255352
	-0.202220307,	 0.612522501
	-0.0867332834,	 0.689294251
	 0.0510222418,	 0.742850116
	 0.204633331,	 0.765611103
	 0.364868252,	 0.752770335
	 0.521294003,	 0.703277288
	 0.664023415,	 0.619821033
	 0.785135511,	 0.507993469
	 0.879355609,	 0.375038292
	 0.944090376,	 0.22860783
	 0.978964978,	 0.0758984552
	 0.985220828,	-0.076864293
	 0.965128793,	-0.224565029
	 0.92149893,	-0.363214272
	 0.857374115,	-0.489747557
	 0.775851546,	-0.601848071
	 0.679988419,	-0.697794627
	 0.57274108,	-0.776366038
	 0.457044628,	-0.836676732
	 0.335736409,	-0.878218003
	 0.211684708,	-0.900767084
	 0.0876915375,	-0.904458117
	-0.0334751874,	-0.889774396
	-0.149127886,	-0.85756977
	-0.2566639,	-0.80912681
	-0.353729279,	-0.746136643
	-0.438278827,	-0.670677408
	-0.508626127,	-0.585216291
	-0.563631927,	-0.492458592
	-0.602685008,	-0.395293213
	-0.625798488,	-0.296607881
	-0.633571263,	-0.199149114
	-0.627124299,	-0.105384271
	-0.608020505,	-0.0173678837
	-0.578109538,	 0.0633018382
	-0.539395523,	 0.135579956
	-0.493864191,	 0.198921646
	-0.443382898,	 0.253235013
	-0.389593663,	 0.298814075
	-0.333835451,	 0.336189451
	-0.277138688,	 0.366069965
	-0.220200276,	 0.389202074
	-0.163447208,	 0.406291648
	-0.107083339,	 0.417943649
	-0.0511383753,	 0.424596906
	 0.00442903192,	 0.426503246
	 0.0596883704,	 0.423763674
	 0.114663385,	 0.416281278
	 0.169284209,	 0.403839136
	 0.223335111,	 0.386126489
	 0.276457254,	 0.362798311
	 0.328096256,	 0.333553281
	 0.377552552,	 0.298101339
	 0.423979428,	 0.256338463
	 0.466430608,	 0.208321269
	 0.503901074,	 0.154259286
	 0.535369149,	 0.0946138303
	 0.559881,	 0.0300289071
	 0.576554861,	-0.0386365147
	 0.584659366,	-0.110370922
	 0.583613787,	-0.1840159
	 0.573017728,	-0.258318513
	 0.552712608,	-0.331958173
	 0.522694171,	-0.403596842
	 0.483155355,	-0.4719137
	 0.434497873,	-0.535616987
	 0.377249453,	-0.593486097
	 0.312093037,	-0.644345954
	 0.239813508,	-0.687118765
	 0.161336652,	-0.720780686
	 0.077646662,	-0.744362795
	-0.0101880953,	-0.756887475
	-0.100984336,	-0.757347721
	-0.193406481,	-0.744589059
	-0.285895898,	-0.717143475
	-0.376331612,	-0.672962833
	-0.461484716,	-0.608789206
	-0.534947127,	-0.519220528
	-0.580897814,	-0.395299315
	-0.550481591,	-0.231091776
	-0.315078088,	-0.133392829
	-0.178732573,	-0.503913132
	-0.542340479,	-0.635957136
	-0.770856397,	-0.489983685
	-0.881326144,	-0.312668323
	-0.93217471,	-0.136367383
	-0.942045706,	 0.0379780129
	-0.914743533,	 0.209802753
	-0.848739335,	 0.375086756
	-0.74133262,	 0.525238986
	-0.592197002,	 0.646557133
	-0.40781979,	 0.721241169
	-0.205788632,	 0.732067185
	-0.0153636278,	 0.671247132
	 0.130470825,	 0.549316663
	 0.20941508,	 0.395150653
	 0.219888362,	 0.243946619
	 0.178311396,	 0.122361566
	 0.107969127,	 0.0419121846
	 0.029228724,	 0.00161728714
	-0.0442193333,	-0.0059468487
	-0.105011444,	 0.0101260901
	-0.150239028,	 0.0415593685
	-0.179610299,	 0.0817216301
	-0.194214718,	 0.125608731
	-0.195745555,	 0.169579768
END
BEGIN
	-0.350668789,	 0.655096243
	-0.255940469,	 0.701030323
	-0.144133903,	 0.725209355
	-0.0131468677,	 0.714069556
	 0.135499543,	 0.63372056
	 0.249313874,	 0.39050975
	-0.0914350139,	-0.0196285628
	-0.611771021,	 0.487408369
	-0.346630274,	 0.894786955
	-0.0796668319,	 0.985946029
	 0.119866385,	 0.987347955
	 0.279826959,	 0.955469089
	 0.415674277,	 0.904913296
	 0.534496414,	 0.84032165
	 0.639399117,	 0.763487326
	 0.731469756,	 0.67529998
	 0.81064938,	 0.576413026
