CITIFILE A.01.01
#Momentum: B.11.40.482 (*) built: Dec  2 2014 
#Momentum Date and Time: Tue Mar 24 16:46:32 2020

NAME PortSet1/TwoP0_Dsolver_data/first_odd_mode_is_1/most_even_mode_is_1/PMLG4/LS0

CONSTANT NBR_OF_PORTS 2

VAR freq MAG 6

DATA GAMMA_1[1] RI
DATA Z0_1[1,1] RI
DATA LAMBADAI_1[1,1] RI
DATA Zcir_1[1,1] RI
DATA Ycir_1[1,1] RI

VAR_LIST_BEGIN
	 5000000000
	 5050000000
	 5100000000
	 5150000000
	 1.013402383e+010
	 2e+010
VAR_LIST_END

BEGIN
	-0,	 265.6936237
	-0,	 268.3869881
	-0,	 271.0812061
	-0,	 273.7762807
	-0,	 546.9279022
	-0,	 1113.586818
END
BEGIN
	 50.784580014033345 ,	 0 
	 50.786078845636332 ,	 0 
	 50.787623933965996 ,	 0 
	 50.789215616878522 ,	 0 
	 51.198099549277849 ,	 0 
	 53.47472713882258 ,	 0 
END
BEGIN
	 0,	 265.6936237
	 0,	 268.3869881
	 0,	 271.0812061
	 0,	 273.7762807
	 0,	 546.9279022
	 0,	 1113.586818
END
BEGIN
	 7.55562126698426e-018 ,	 1.14007256980733e-009 
	 -5.60849868468575e-018 ,	 1.14026098469366e-009 
	 -3.40026184488845e-020 ,	 1.14045100406798e-009 
	 6.14926767995781e-019 ,	 1.14064263234942e-009 
	 2.36544767976814e-017 ,	 1.16732423721692e-009 
	 -2.91912788910133e-016 ,	 1.25785959385552e-009 
END
BEGIN
	 -4.15783935661026e-016 ,	 6.27379064227331e-008 
	 3.08616053323179e-016 ,	 6.27445711657996e-008 
	 1.87093124466548e-018 ,	 6.27512089908151e-008 
	 -3.38330883592148e-017 ,	 6.27578192641472e-008 
	 -1.2807575405273e-015 ,	 6.32040747230726e-008 
	 1.44882931126705e-014 ,	 6.24304216283376e-008 
END
CITIFILE A.01.01
NAME PortSet2/TwoP0_Dsolver_data/first_odd_mode_is_1/most_even_mode_is_1/PMLG4/LS0

VAR freq MAG 6

DATA GAMMA_1[1] RI
DATA Z0_1[1,1] RI
DATA LAMBADAI_1[1,1] RI
DATA Zcir_1[1,1] RI
DATA Ycir_1[1,1] RI

VAR_LIST_BEGIN
	 5000000000
	 5050000000
	 5100000000
	 5150000000
	 1.013402383e+010
	 2e+010
VAR_LIST_END

BEGIN
	-0,	 265.6936237
	-0,	 268.3869881
	-0,	 271.0812061
	-0,	 273.7762807
	-0,	 546.9279022
	-0,	 1113.586818
END
BEGIN
	 50.784580014033345 ,	 0 
	 50.786078845636332 ,	 0 
	 50.787623933965996 ,	 0 
	 50.789215616878522 ,	 0 
	 51.198099549277849 ,	 0 
	 53.47472713882258 ,	 0 
END
BEGIN
	 0,	 265.6936237
	 0,	 268.3869881
	 0,	 271.0812061
	 0,	 273.7762807
	 0,	 546.9279022
	 0,	 1113.586818
END
BEGIN
	 7.55562126698426e-018 ,	 1.14007256980733e-009 
	 -5.60849868468575e-018 ,	 1.14026098469366e-009 
	 -3.40026184488845e-020 ,	 1.14045100406798e-009 
	 6.14926767995781e-019 ,	 1.14064263234942e-009 
	 2.36544767976814e-017 ,	 1.16732423721692e-009 
	 -2.91912788910133e-016 ,	 1.25785959385552e-009 
END
BEGIN
	 -4.15783935661026e-016 ,	 6.27379064227331e-008 
	 3.08616053323179e-016 ,	 6.27445711657996e-008 
	 1.87093124466548e-018 ,	 6.27512089908151e-008 
	 -3.38330883592148e-017 ,	 6.27578192641472e-008 
	 -1.2807575405273e-015 ,	 6.32040747230726e-008 
	 1.44882931126705e-014 ,	 6.24304216283376e-008 
END
