CITIFILE A.01.01
#Momentum: B.11.40.482 (*) built: Dec  2 2014 
#Momentum Date and Time: Wed Mar 23 12:01:37 2022

NAME Momentum.SP

#  mode: MW    project: proj

CONSTANT NBR_OF_PORTS 2

CONSTANT NORMALIZATION 1

VAR freq MAG 51

DATA S[1,1] RI
DATA S[1,2] RI
DATA S[2,1] RI
DATA S[2,2] RI
DATA S_50[1,1] RI
DATA S_50[1,2] RI
DATA S_50[2,1] RI
DATA S_50[2,2] RI
DATA S_Z0[1,1] RI
DATA S_Z0[1,2] RI
DATA S_Z0[2,1] RI
DATA S_Z0[2,2] RI
DATA GAMMA[1] RI
DATA GAMMA[2] RI
DATA Z0[1] RI
DATA Z0[2] RI
DATA PORTZ[1] RI
DATA PORTZ[2] RI

VAR_LIST_BEGIN
	 3000000000
	 3080000000
	 3160000000
	 3240000000
	 3320000000
	 3400000000
	 3480000000
	 3560000000
	 3640000000
	 3720000000
	 3800000000
	 3880000000
	 3960000000
	 4040000000
	 4120000000
	 4200000000
	 4280000000
	 4360000000
	 4440000000
	 4520000000
	 4600000000
	 4680000000
	 4760000000
	 4840000000
	 4920000000
	 5000000000
	 5080000000
	 5160000000
	 5240000000
	 5320000000
	 5400000000
	 5480000000
	 5560000000
	 5640000000
	 5720000000
	 5800000000
	 5880000000
	 5960000000
	 6040000000
	 6120000000
	 6200000000
	 6280000000
	 6360000000
	 6440000000
	 6520000000
	 6600000000
	 6680000000
	 6760000000
	 6840000000
	 6920000000
	 7000000000
VAR_LIST_END

BEGIN
	-0.986118679,	 0.162985616
	-0.980521099,	 0.193573786
	-0.973874503,	 0.224367031
	-0.966107493,	 0.255455223
	-0.957132325,	 0.286940772
	-0.94683461,	 0.318928745
	-0.935065276,	 0.351543469
	-0.921641095,	 0.384908155
	-0.906317076,	 0.419184164
	-0.888789774,	 0.454530002
	-0.8686583,	 0.491136455
	-0.845393487,	 0.529220341
	-0.818299683,	 0.569000304
	-0.786412152,	 0.610733327
	-0.748410708,	 0.654634501
	-0.702410606,	 0.700847111
	-0.645680394,	 0.749263763
	-0.574151981,	 0.799166451
	-0.481742175,	 0.848293869
	-0.359491082,	 0.890664565
	-0.195642157,	 0.911379542
	 0.0176821764,	 0.875907243
	 0.253343986,	 0.721411929
	 0.389055226,	 0.413731725
	 0.29983781,	 0.106740164
	 0.129352913,	-0.0139990503
	 0.0713589585,	-0.0438111065
	 0.0969577951,	-0.172263652
	-0.00512286727,	-0.440992024
	-0.340803041,	-0.602658369
	-0.674613646,	-0.516454731
	-0.865988931,	-0.327185363
	-0.950290637,	-0.142241667
	-0.977722745,	 0.012951148
	-0.976486681,	 0.140292041
	-0.960224423,	 0.246176431
	-0.935465558,	 0.336170228
	-0.905391936,	 0.414359083
	-0.871565472,	 0.483622916
	-0.834743039,	 0.545961707
	-0.795242499,	 0.602787679
	-0.753148225,	 0.655077875
	-0.708405611,	 0.703503775
	-0.660881399,	 0.748499383
	-0.610387303,	 0.790317711
	-0.556706521,	 0.829059179
	-0.499609343,	 0.864685802
	-0.438863923,	 0.897036608
	-0.374240322,	 0.925833592
	-0.305535171,	 0.950677436
	-0.232585741,	 0.971046272
END
BEGIN
	-0.00503558029,	-0.0304451506
	-0.00627291506,	-0.0317621247
	-0.00766010414,	-0.0332423672
	-0.00923490794,	-0.0349099352
	-0.0110338341,	-0.0367891366
	-0.0131136551,	-0.0389134792
	-0.0155432865,	-0.0413203553
	-0.0184114279,	-0.0440546538
	-0.0218346144,	-0.0471683556
	-0.0259688266,	-0.0507241999
	-0.0310228759,	-0.0547930999
	-0.0372845311,	-0.0594551316
	-0.0451538315,	-0.0647949909
	-0.0552031715,	-0.0708888599
	-0.0682626807,	-0.0777778332
	-0.0855668475,	-0.0853978003
	-0.108987689,	-0.0934243224
	-0.141415211,	-0.100903857
	-0.187318367,	-0.105383054
	-0.253378663,	-0.100795708
	-0.348017474,	-0.0724112968
	-0.474203642,	 0.0134397446
	-0.597341906,	 0.217156367
	-0.583776173,	 0.566672085
	-0.291738547,	 0.892687331
	 0.155468047,	 0.971880509
	 0.566135106,	 0.813165679
	 0.858570769,	 0.46361954
	 0.893391796,	-0.0159317824
	 0.623281268,	-0.355654316
	 0.316442089,	-0.416469939
	 0.130464711,	-0.349530254
	 0.0388874658,	-0.268150271
	-0.00372953669,	-0.202339005
	-0.0229753071,	-0.153577906
	-0.031040785,	-0.1179383
	-0.0336525615,	-0.0916501532
	-0.0335676577,	-0.0719457313
	-0.0321547189,	-0.0569163651
	-0.0301103806,	-0.0452614515
	-0.027795717,	-0.0360854626
	-0.0253977782,	-0.0287658383
	-0.0230121557,	-0.0228626313
	-0.0206849327,	-0.0180604523
	-0.0184371785,	-0.0141312437
	-0.01627618,	-0.0109077455
	-0.0142029347,	-0.00826656195
	-0.0122176117,	-0.00611658808
	-0.0103208562,	-0.00438951313
	-0.00851617152,	-0.00303407883
	 -0.00681172367 ,	 -0.00201097772 
END
BEGIN
	-0.00503558029,	-0.0304451506
	-0.00627291506,	-0.0317621247
	-0.00766010414,	-0.0332423672
	-0.00923490794,	-0.0349099352
	-0.0110338341,	-0.0367891366
	-0.0131136551,	-0.0389134792
	-0.0155432865,	-0.0413203553
	-0.0184114279,	-0.0440546538
	-0.0218346144,	-0.0471683556
	-0.0259688266,	-0.0507241999
	-0.0310228759,	-0.0547930999
	-0.0372845311,	-0.0594551316
	-0.0451538315,	-0.0647949909
	-0.0552031715,	-0.0708888599
	-0.0682626807,	-0.0777778332
	-0.0855668475,	-0.0853978003
	-0.108987689,	-0.0934243224
	-0.141415211,	-0.100903857
	-0.187318367,	-0.105383054
	-0.253378663,	-0.100795708
	-0.348017474,	-0.0724112968
	-0.474203642,	 0.0134397446
	-0.597341906,	 0.217156367
	-0.583776173,	 0.566672085
	-0.291738547,	 0.892687331
	 0.155468047,	 0.971880509
	 0.566135106,	 0.813165679
	 0.858570769,	 0.46361954
	 0.893391796,	-0.0159317824
	 0.623281268,	-0.355654316
	 0.316442089,	-0.416469939
	 0.130464711,	-0.349530254
	 0.0388874658,	-0.268150271
	-0.00372953669,	-0.202339005
	-0.0229753071,	-0.153577906
	-0.031040785,	-0.1179383
	-0.0336525615,	-0.0916501532
	-0.0335676577,	-0.0719457313
	-0.0321547189,	-0.0569163651
	-0.0301103806,	-0.0452614515
	-0.027795717,	-0.0360854626
	-0.0253977782,	-0.0287658383
	-0.0230121557,	-0.0228626313
	-0.0206849327,	-0.0180604523
	-0.0184371785,	-0.0141312437
	-0.01627618,	-0.0109077455
	-0.0142029347,	-0.00826656195
	-0.0122176117,	-0.00611658808
	-0.0103208562,	-0.00438951313
	-0.00851617152,	-0.00303407883
	 -0.00681172367 ,	 -0.00201097772 
END
BEGIN
	-0.98611861,	 0.162986033
	-0.980520953,	 0.193574524
	-0.973874349,	 0.224367697
	-0.966107348,	 0.255455771
	-0.957132244,	 0.286941044
	-0.946834425,	 0.318929295
	-0.935065009,	 0.351544179
	-0.921640788,	 0.38490889
	-0.906316762,	 0.419184843
	-0.888789433,	 0.454530669
	-0.868657958,	 0.49113706
	-0.845392946,	 0.529221205
	-0.818299064,	 0.569001193
	-0.786411469,	 0.610734204
	-0.748409856,	 0.654635473
	-0.702409497,	 0.70084822
	-0.645679222,	 0.74926477
	-0.574150597,	 0.799167441
	-0.481740216,	 0.848294975
	-0.359488058,	 0.890665776
	-0.195638251,	 0.911380364
	 0.0176876048,	 0.875907104
	 0.253350753,	 0.72140949
	 0.389062253,	 0.413724952
	 0.299841443,	 0.106729197
	 0.129350912,	-0.0140119351
	 0.0713513867,	-0.0438221031
	 0.0969458898,	-0.172270167
	-0.00513596468,	-0.440991869
	-0.340812528,	-0.60265304
	-0.674618424,	-0.516448538
	-0.865991294,	-0.327179176
	-0.95029143,	-0.1422365
	-0.977722708,	 0.0129550512
	-0.976486226,	 0.140295291
	-0.960223704,	 0.246179275
	-0.935464813,	 0.336172325
	-0.905391167,	 0.414360779
	-0.871564814,	 0.483624114
	-0.834742156,	 0.545963066
	-0.795241643,	 0.602788816
	-0.753147299,	 0.655078945
	-0.708404665,	 0.703504734
	-0.660880024,	 0.748500603
	-0.6103865,	 0.790318336
	-0.556705544,	 0.829059838
	-0.499608655,	 0.864686203
	-0.438863481,	 0.897036827
	-0.374239147,	 0.925834069
	-0.305534517,	 0.950677649
	-0.232585764,	 0.971046268
END
BEGIN
	-0.986118679,	 0.162985616
	-0.980521099,	 0.193573786
	-0.973874503,	 0.224367031
	-0.966107493,	 0.255455223
	-0.957132325,	 0.286940772
	-0.94683461,	 0.318928745
	-0.935065276,	 0.351543469
	-0.921641095,	 0.384908155
	-0.906317076,	 0.419184164
	-0.888789774,	 0.454530002
	-0.8686583,	 0.491136455
	-0.845393487,	 0.529220341
	-0.818299683,	 0.569000304
	-0.786412152,	 0.610733327
	-0.748410708,	 0.654634501
	-0.702410606,	 0.700847111
	-0.645680394,	 0.749263763
	-0.574151981,	 0.799166451
	-0.481742175,	 0.848293869
	-0.359491082,	 0.890664565
	-0.195642157,	 0.911379542
	 0.0176821764,	 0.875907243
	 0.253343986,	 0.721411929
	 0.389055226,	 0.413731725
	 0.29983781,	 0.106740164
	 0.129352913,	-0.0139990503
	 0.0713589585,	-0.0438111065
	 0.0969577951,	-0.172263652
	-0.00512286727,	-0.440992024
	-0.340803041,	-0.602658369
	-0.674613646,	-0.516454731
	-0.865988931,	-0.327185363
	-0.950290637,	-0.142241667
	-0.977722745,	 0.012951148
	-0.976486681,	 0.140292041
	-0.960224423,	 0.246176431
	-0.935465558,	 0.336170228
	-0.905391936,	 0.414359083
	-0.871565472,	 0.483622916
	-0.834743039,	 0.545961707
	-0.795242499,	 0.602787679
	-0.753148225,	 0.655077875
	-0.708405611,	 0.703503775
	-0.660881399,	 0.748499383
	-0.610387303,	 0.790317711
	-0.556706521,	 0.829059179
	-0.499609343,	 0.864685802
	-0.438863923,	 0.897036608
	-0.374240322,	 0.925833592
	-0.305535171,	 0.950677436
	-0.232585741,	 0.971046272
END
BEGIN
	-0.00503558029,	-0.0304451506
	-0.00627291506,	-0.0317621247
	-0.00766010414,	-0.0332423672
	-0.00923490794,	-0.0349099352
	-0.0110338341,	-0.0367891366
	-0.0131136551,	-0.0389134792
	-0.0155432865,	-0.0413203553
	-0.0184114279,	-0.0440546538
	-0.0218346144,	-0.0471683556
	-0.0259688266,	-0.0507241999
	-0.0310228759,	-0.0547930999
	-0.0372845311,	-0.0594551316
	-0.0451538315,	-0.0647949909
	-0.0552031715,	-0.0708888599
	-0.0682626807,	-0.0777778332
	-0.0855668475,	-0.0853978003
	-0.108987689,	-0.0934243224
	-0.141415211,	-0.100903857
	-0.187318367,	-0.105383054
	-0.253378663,	-0.100795708
	-0.348017474,	-0.0724112968
	-0.474203642,	 0.0134397446
	-0.597341906,	 0.217156367
	-0.583776173,	 0.566672085
	-0.291738547,	 0.892687331
	 0.155468047,	 0.971880509
	 0.566135106,	 0.813165679
	 0.858570769,	 0.46361954
	 0.893391796,	-0.0159317824
	 0.623281268,	-0.355654316
	 0.316442089,	-0.416469939
	 0.130464711,	-0.349530254
	 0.0388874658,	-0.268150271
	-0.00372953669,	-0.202339005
	-0.0229753071,	-0.153577906
	-0.031040785,	-0.1179383
	-0.0336525615,	-0.0916501532
	-0.0335676577,	-0.0719457313
	-0.0321547189,	-0.0569163651
	-0.0301103806,	-0.0452614515
	-0.027795717,	-0.0360854626
	-0.0253977782,	-0.0287658383
	-0.0230121557,	-0.0228626313
	-0.0206849327,	-0.0180604523
	-0.0184371785,	-0.0141312437
	-0.01627618,	-0.0109077455
	-0.0142029347,	-0.00826656195
	-0.0122176117,	-0.00611658808
	-0.0103208562,	-0.00438951313
	-0.00851617152,	-0.00303407883
	 -0.00681172367 ,	 -0.00201097772 
END
BEGIN
	-0.00503558029,	-0.0304451506
	-0.00627291506,	-0.0317621247
	-0.00766010414,	-0.0332423672
	-0.00923490794,	-0.0349099352
	-0.0110338341,	-0.0367891366
	-0.0131136551,	-0.0389134792
	-0.0155432865,	-0.0413203553
	-0.0184114279,	-0.0440546538
	-0.0218346144,	-0.0471683556
	-0.0259688266,	-0.0507241999
	-0.0310228759,	-0.0547930999
	-0.0372845311,	-0.0594551316
	-0.0451538315,	-0.0647949909
	-0.0552031715,	-0.0708888599
	-0.0682626807,	-0.0777778332
	-0.0855668475,	-0.0853978003
	-0.108987689,	-0.0934243224
	-0.141415211,	-0.100903857
	-0.187318367,	-0.105383054
	-0.253378663,	-0.100795708
	-0.348017474,	-0.0724112968
	-0.474203642,	 0.0134397446
	-0.597341906,	 0.217156367
	-0.583776173,	 0.566672085
	-0.291738547,	 0.892687331
	 0.155468047,	 0.971880509
	 0.566135106,	 0.813165679
	 0.858570769,	 0.46361954
	 0.893391796,	-0.0159317824
	 0.623281268,	-0.355654316
	 0.316442089,	-0.416469939
	 0.130464711,	-0.349530254
	 0.0388874658,	-0.268150271
	-0.00372953669,	-0.202339005
	-0.0229753071,	-0.153577906
	-0.031040785,	-0.1179383
	-0.0336525615,	-0.0916501532
	-0.0335676577,	-0.0719457313
	-0.0321547189,	-0.0569163651
	-0.0301103806,	-0.0452614515
	-0.027795717,	-0.0360854626
	-0.0253977782,	-0.0287658383
	-0.0230121557,	-0.0228626313
	-0.0206849327,	-0.0180604523
	-0.0184371785,	-0.0141312437
	-0.01627618,	-0.0109077455
	-0.0142029347,	-0.00826656195
	-0.0122176117,	-0.00611658808
	-0.0103208562,	-0.00438951313
	-0.00851617152,	-0.00303407883
	 -0.00681172367 ,	 -0.00201097772 
END
BEGIN
	-0.98611861,	 0.162986033
	-0.980520953,	 0.193574524
	-0.973874349,	 0.224367697
	-0.966107348,	 0.255455771
	-0.957132244,	 0.286941044
	-0.946834425,	 0.318929295
	-0.935065009,	 0.351544179
	-0.921640788,	 0.38490889
	-0.906316762,	 0.419184843
	-0.888789433,	 0.454530669
	-0.868657958,	 0.49113706
	-0.845392946,	 0.529221205
	-0.818299064,	 0.569001193
	-0.786411469,	 0.610734204
	-0.748409856,	 0.654635473
	-0.702409497,	 0.70084822
	-0.645679222,	 0.74926477
	-0.574150597,	 0.799167441
	-0.481740216,	 0.848294975
	-0.359488058,	 0.890665776
	-0.195638251,	 0.911380364
	 0.0176876048,	 0.875907104
	 0.253350753,	 0.72140949
	 0.389062253,	 0.413724952
	 0.299841443,	 0.106729197
	 0.129350912,	-0.0140119351
	 0.0713513867,	-0.0438221031
	 0.0969458898,	-0.172270167
	-0.00513596468,	-0.440991869
	-0.340812528,	-0.60265304
	-0.674618424,	-0.516448538
	-0.865991294,	-0.327179176
	-0.95029143,	-0.1422365
	-0.977722708,	 0.0129550512
	-0.976486226,	 0.140295291
	-0.960223704,	 0.246179275
	-0.935464813,	 0.336172325
	-0.905391167,	 0.414360779
	-0.871564814,	 0.483624114
	-0.834742156,	 0.545963066
	-0.795241643,	 0.602788816
	-0.753147299,	 0.655078945
	-0.708404665,	 0.703504734
	-0.660880024,	 0.748500603
	-0.6103865,	 0.790318336
	-0.556705544,	 0.829059838
	-0.499608655,	 0.864686203
	-0.438863481,	 0.897036827
	-0.374239147,	 0.925834069
	-0.305534517,	 0.950677649
	-0.232585764,	 0.971046268
END
BEGIN
	-0.92670077,	 0.369056676
	-0.898379196,	 0.433029084
	-0.865633308,	 0.494824445
	-0.828544679,	 0.554240699
	-0.787182644,	 0.611089926
	-0.741597456,	 0.665163647
	-0.691803023,	 0.716254648
	-0.63780955,	 0.764112857
	-0.579559192,	 0.808489027
	-0.516997215,	 0.849060011
	-0.450011192,	 0.88545667
	-0.378441483,	 0.917227946
	-0.302120328,	 0.943790901
	-0.220788352,	 0.964428566
	-0.134201235,	 0.978188208
	-0.0420831046,	 0.983826882
	 0.0557879214,	 0.979686388
	 0.159513133,	 0.963537251
	 0.26881454,	 0.93237281
	 0.382674559,	 0.882169676
	 0.498650176,	 0.807670035
	 0.611561776,	 0.702469088
	 0.711636226,	 0.55993991
	 0.782333177,	 0.376270217
	 0.800304512,	 0.156954266
	 0.742776766,	-0.0749563896
	 0.605498155,	-0.279667191
	 0.415385909,	-0.424002567
	 0.208969997,	-0.509419666
	-0.00837612459,	-0.558344914
	-0.260821198,	-0.563199604
	-0.540854428,	-0.471523602
	-0.773357338,	-0.256691453
	-0.888103569,	 0.0257111257
	-0.886848932,	 0.296532176
	-0.812277487,	 0.515662049
	-0.703160859,	 0.678802886
	-0.5825104,	 0.795470128
	-0.461616158,	 0.87680791
	-0.345391332,	 0.931874396
	-0.235613917,	 0.967313882
	-0.132670248,	 0.987826138
	-0.0363473524,	 0.9967323
	 0.0537764555,	 0.996398888
	 0.138178217,	 0.988537794
	 0.217308524,	 0.974412149
	 0.291560435,	 0.95496985
	 0.361269571,	 0.930938704
	 0.426723105,	 0.902883701
	 0.488153726,	 0.871255721
	 0.54574987,	 0.83642011
END
BEGIN
	-0.0259110853,	-0.0650425615
	-0.0315179355,	-0.0653778561
	-0.0374236746,	-0.0654636293
	-0.0436734478,	-0.0652753671
	-0.0502973233,	-0.0647786535
	-0.0573549462,	-0.0639314167
	-0.0649080582,	-0.0626743291
	-0.0730280591,	-0.0609328626
	-0.0817975831,	-0.0586038732
	-0.0913148728,	-0.0555571312
	-0.101687639,	-0.0516174696
	-0.11303823,	-0.0465518955
	-0.125498414,	-0.040054794
	-0.139204497,	-0.0317064617
	-0.154284584,	-0.0209474957
	-0.170827758,	-0.00701001994
	-0.188829989,	 0.0111566871
	-0.208081575,	 0.0350012783
	-0.227967661,	 0.0664954704
	-0.247096631,	 0.108281776
	-0.262594361,	 0.163731614
	-0.26897502,	 0.236651019
	-0.256392951,	 0.330023733
	-0.20889141,	 0.442518938
	-0.105140136,	 0.561354241
	 0.0724634937,	 0.653378411
	 0.316555026,	 0.665631392
	 0.576086256,	 0.550817672
	 0.769374492,	 0.304817037
	 0.822690337,	-0.021123481
	 0.703032589,	-0.332983015
	 0.450085441,	-0.523567853
	 0.177322687,	-0.545146091
	-0.015624907,	-0.451493188
	-0.111616216,	-0.32760546
	-0.142222572,	-0.221124291
	-0.140005487,	-0.143231377
	-0.124652717,	-0.0900355558
	-0.105772396,	-0.0547758159
	-0.0874736235,	-0.0317405474
	-0.0712509212,	-0.016845117
	-0.0574523464,	-0.00734173403
	-0.0459617641,	-0.00141433459
	-0.0365026906,	 0.00213419527
	-0.0287700091,	 0.00409804077
	-0.0224787382,	 0.00500869134
	-0.0173814584,	 0.00522529172
	-0.0132712775,	 0.00499367219
	-0.009976313,	 0.00448350611
	-0.00735560714,	 0.00381309266
	 -0.00529385792 ,	 0.00306608622 
END
BEGIN
	-0.0259110853,	-0.0650425615
	-0.0315179355,	-0.0653778561
	-0.0374236746,	-0.0654636293
	-0.0436734478,	-0.0652753671
	-0.0502973233,	-0.0647786535
	-0.0573549462,	-0.0639314167
	-0.0649080582,	-0.0626743291
	-0.0730280591,	-0.0609328626
	-0.0817975831,	-0.0586038732
	-0.0913148728,	-0.0555571312
	-0.101687639,	-0.0516174696
	-0.11303823,	-0.0465518955
	-0.125498414,	-0.040054794
	-0.139204497,	-0.0317064617
	-0.154284584,	-0.0209474957
	-0.170827758,	-0.00701001994
	-0.188829989,	 0.0111566871
	-0.208081575,	 0.0350012783
	-0.227967661,	 0.0664954704
	-0.247096631,	 0.108281776
	-0.262594361,	 0.163731614
	-0.26897502,	 0.236651019
	-0.256392951,	 0.330023733
	-0.20889141,	 0.442518938
	-0.105140136,	 0.561354241
	 0.0724634937,	 0.653378411
	 0.316555026,	 0.665631392
	 0.576086256,	 0.550817672
	 0.769374492,	 0.304817037
	 0.822690337,	-0.021123481
	 0.703032589,	-0.332983015
	 0.450085441,	-0.523567853
	 0.177322687,	-0.545146091
	-0.015624907,	-0.451493188
	-0.111616216,	-0.32760546
	-0.142222572,	-0.221124291
	-0.140005487,	-0.143231377
	-0.124652717,	-0.0900355558
	-0.105772396,	-0.0547758159
	-0.0874736235,	-0.0317405474
	-0.0712509212,	-0.016845117
	-0.0574523464,	-0.00734173403
	-0.0459617641,	-0.00141433459
	-0.0365026906,	 0.00213419527
	-0.0287700091,	 0.00409804077
	-0.0224787382,	 0.00500869134
	-0.0173814584,	 0.00522529172
	-0.0132712775,	 0.00499367219
	-0.009976313,	 0.00448350611
	-0.00735560714,	 0.00381309266
	 -0.00529385792 ,	 0.00306608622 
END
BEGIN
	-0.926700415,	 0.369057567
	-0.898378463,	 0.433030603
	-0.865632557,	 0.494825757
	-0.828543994,	 0.554241723
	-0.787182273,	 0.611090405
	-0.741596646,	 0.665164551
	-0.691801908,	 0.716255725
	-0.637808332,	 0.764113874
	-0.579558015,	 0.808489871
	-0.516996015,	 0.849060742
	-0.45001007,	 0.88545724
	-0.378439841,	 0.917228623
	-0.302118607,	 0.943791451
	-0.22078663,	 0.964428958
	-0.134199309,	 0.978188471
	-0.0420808884,	 0.983826975
	 0.0557899541,	 0.97968627
	 0.159515171,	 0.963536911
	 0.268816927,	 0.932372117
	 0.382677514,	 0.882168389
	 0.498653129,	 0.807668203
	 0.611564863,	 0.702466388
	 0.711639138,	 0.559936183
	 0.782335702,	 0.376264918
	 0.800305833,	 0.156947365
	 0.742775845,	-0.0749650499
	 0.605493935,	-0.279676182
	 0.415377939,	-0.424010273
	 0.208958746,	-0.509424202
	-0.00838860099,	-0.558344678
	-0.260831748,	-0.563194702
	-0.540862488,	-0.471514369
	-0.773360846,	-0.256680964
	-0.888103346,	 0.0257198364
	-0.886846638,	 0.296539121
	-0.812274118,	 0.515667401
	-0.703157702,	 0.678806184
	-0.582507499,	 0.795472271
	-0.46161396,	 0.876809082
	-0.345388734,	 0.931875371
	-0.235611696,	 0.967314433
	-0.132668132,	 0.98782643
	-0.0363454445,	 0.996732378
	 0.0537789001,	 0.996398764
	 0.138179478,	 0.988537624
	 0.217309877,	 0.974411852
	 0.291561277,	 0.954969598
	 0.36127005,	 0.930938521
	 0.426724225,	 0.902883175
	 0.488154277,	 0.871255416
	 0.545749853,	 0.836420122
END
BEGIN
	 9.04890217e-33,	 174.355052
	 1.16513105e-22,	 179.020133
	 2.22226725e-21,	 183.68629
	 7.61031268e-21,	 188.353471
	 1.47424515e-20,	 193.021696
	 2.22883436e-20,	 197.690979
	 2.89383308e-20,	 202.361336
	 3.34034415e-20,	 207.032782
	 3.44153952e-20,	 211.705332
	 3.07266062e-20,	 216.379001
	 2.11101876e-20,	 221.053804
	 4.35995431e-21,	 225.729756
	 1.55904224e-22,	 230.40662
	 3.63880904e-22,	 235.084534
	 5.81538335e-22,	 239.763568
	 8.04552795e-22,	 244.443732
	 1.02889424e-21,	 249.125038
	 1.25082617e-21,	 253.807499
	 1.46690555e-21,	 258.491124
	 1.67398263e-21,	 263.175927
	 1.86920089e-21,	 267.861919
	 2.04999686e-21,	 272.54911
	 2.21409999e-21,	 277.237514
	 2.35953255e-21,	 281.927141
	 2.48460946e-21,	 286.618003
	 2.58793817e-21,	 291.310112
	 2.66841847e-21,	 296.00348
	 2.72524241e-21,	 300.698117
	 2.75789407e-21,	 305.394035
	 2.76614947e-21,	 310.091246
	 2.75007637e-21,	 314.789763
	 2.71003411e-21,	 319.489595
	 2.64667346e-21,	 324.190755
	 2.56093644e-21,	 328.893255
	 2.45405614e-21,	 333.597106
