CITIFILE A.01.01
#Momentum: B.11.40.482 (*) built: Dec  2 2014 
#Momentum Date and Time: Wed Mar 23 12:01:26 2022

NAME PortSet1/TwoP0_Dsolver_data/first_odd_mode_is_1/most_even_mode_is_1/PMLG4/LS0

CONSTANT NBR_OF_PORTS 2

VAR freq MAG 6

DATA GAMMA_1[1] RI
DATA Z0_1[1,1] RI
DATA LAMBADAI_1[1,1] RI
DATA Zcir_1[1,1] RI
DATA Ycir_1[1,1] RI

VAR_LIST_BEGIN
	 3000000000
	 3030000000
	 3060000000
	 3090000000
	 3896175496
	 7000000000
VAR_LIST_END

BEGIN
	-0,	 174.3550522
	-0,	 176.1043406
	-0,	 177.8537578
	-0,	 179.6033505
	-0,	 226.6753454
	-0,	 409.051926
END
BEGIN
	 21.3761269781229934494604094652 ,	 0 
	 21.375907919763744047259024228 ,	 0 
	 21.3756875629407474548315803986 ,	 0 
	 21.375471419569301190222176956 ,	 0 
	 21.3698998918146045866706117522 ,	 0 
	 21.3576537191690185579773242353 ,	 0 
END
BEGIN
	 0,	 174.3550522
	 0,	 176.1043406
	 0,	 177.8537578
	 0,	 179.6033505
	 0,	 226.6753454
	 0,	 409.051926
END
BEGIN
	 -7.798063599947e-19 ,	 5.24845896371163e-10 
	 9.67749526665024e-19 ,	 5.24857618849078e-10 
	 -7.53083995509474e-19 ,	 5.24869353951307e-10 
	 1.04589550515151e-18 ,	 5.24881372158465e-10 
	 2.53729253173562e-19 ,	 5.25239968748621e-10 
	 -8.59369000781057e-18 ,	 5.2725832586964e-10 
END
BEGIN
	 2.42208838810525e-16 ,	 1.63017797284178e-07 
	 -3.00590384140312e-16 ,	 1.63024779575452e-07 
	 2.33918455623643e-16 ,	 1.63031785846688e-07 
	 -3.24876389030842e-16 ,	 1.63038816035158e-07 
	 -7.8854561610749e-17 ,	 1.63235287055311e-07 
	 2.67383040778749e-15 ,	 1.64050523487354e-07 
END
CITIFILE A.01.01
NAME PortSet2/TwoP0_Dsolver_data/first_odd_mode_is_1/most_even_mode_is_1/PMLG4/LS0

VAR freq MAG 6

DATA GAMMA_1[1] RI
DATA Z0_1[1,1] RI
DATA LAMBADAI_1[1,1] RI
DATA Zcir_1[1,1] RI
DATA Ycir_1[1,1] RI

VAR_LIST_BEGIN
	 3000000000
	 3030000000
	 3060000000
	 3090000000
	 3896175496
	 7000000000
VAR_LIST_END

BEGIN
	-0,	 174.3550522
	-0,	 176.1043406
	-0,	 177.8537578
	-0,	 179.6033505
	-0,	 226.6753454
	-0,	 409.051926
END
BEGIN
	 21.3761269781229934494604094652 ,	 0 
	 21.375907919763744047259024228 ,	 0 
	 21.3756875629407474548315803986 ,	 0 
	 21.375471419569301190222176956 ,	 0 
	 21.3698998918146045866706117522 ,	 0 
	 21.3576537191690185579773242353 ,	 0 
END
BEGIN
	 0,	 174.3550522
	 0,	 176.1043406
	 0,	 177.8537578
	 0,	 179.6033505
	 0,	 226.6753454
	 0,	 409.051926
END
BEGIN
	 -7.798063599947e-19 ,	 5.24845896371163e-10 
	 9.67749526665024e-19 ,	 5.24857618849078e-10 
	 -7.53083995509474e-19 ,	 5.24869353951307e-10 
	 1.04589550515151e-18 ,	 5.24881372158465e-10 
	 2.53729253173562e-19 ,	 5.25239968748621e-10 
	 -8.59369000781057e-18 ,	 5.2725832586964e-10 
END
BEGIN
	 2.42208838810525e-16 ,	 1.63017797284178e-07 
	 -3.00590384140312e-16 ,	 1.63024779575452e-07 
	 2.33918455623643e-16 ,	 1.63031785846688e-07 
	 -3.24876389030842e-16 ,	 1.63038816035158e-07 
	 -7.8854561610749e-17 ,	 1.63235287055311e-07 
	 2.67383040778749e-15 ,	 1.64050523487354e-07 
END
