CITIFILE A.01.01
#Momentum: B.11.40.482 (*) built: Dec  2 2014 
#Momentum Date and Time: Thu Jun 16 16:51:11 2022

NAME Momentum.SP

#  mode: MW    project: proj    reference: S_50

CONSTANT NBR_OF_PORTS 1

CONSTANT NORMALIZATION 1

VAR freq MAG 8

DATA S[1,1] RI
DATA S_50[1,1] RI
DATA S_Z0[1,1] RI
DATA GAMMA[1] RI
DATA Z0[1] RI
DATA PORTZ[1] RI

VAR_LIST_BEGIN
	 2000000000
	 2166666667
	 2250000000
	 2333333333
	 2444444444
	 2666666667
	 2833333334
	 3000000000
VAR_LIST_END

BEGIN
	 0.953792334,	-0.262262551
	 0.758877974,	-0.613640604
	 0.524046536,	-0.78829046
	-0.0649785063,	-0.764027963
	 0.76502957,	-0.0185123581
	 0.43012803,	-0.873798777
	 0.0640938389,	-0.980023578
	-0.28439552,	-0.9414449
END
BEGIN
	 0.953792334,	-0.262262551
	 0.758877974,	-0.613640604
	 0.524046536,	-0.78829046
	-0.0649785063,	-0.764027963
	 0.76502957,	-0.0185123581
	 0.43012803,	-0.873798777
	 0.0640938389,	-0.980023578
	-0.28439552,	-0.9414449
END
BEGIN
	 0.952234209,	-0.267113647
	 0.750801907,	-0.622901041
	 0.510228062,	-0.796569648
	-0.0816584149,	-0.762531594
	 0.760847696,	-0.0187576521
	 0.413094084,	-0.881690199
	 0.0422900011,	-0.981161524
	-0.305288285,	-0.934966469
END
BEGIN
	 0.10354709,	 76.0119768
	 0.112426269,	 82.3913096
	 0.116882339,	 85.5842607
	 0.121349525,	 88.7794629
	 0.127323242,	 93.0433205
	 0.139331503,	 101.58378
	 0.148391902,	 108.00074
	 0.1574997,	 114.428095
END
BEGIN
	 50.961463479999999 ,	 0.069411572059999996 
	 50.977786170000002 ,	 0.069548503459999994 
	 50.986521410000002 ,	 0.069618282449999999 
	 50.995640340000001 ,	 0.069688910960000003 
	 51.008395290000003 ,	 0.069784378199999997 
	 51.035947489999998 ,	 0.069979651480000002 
	 51.05839606 ,	 0.070129818849999997 
	 51.082371610000003 ,	 0.070283109029999999 
END
BEGIN
	 50 ,	 0 
	 50 ,	 0 
	 50 ,	 0 
	 50 ,	 0 
	 50 ,	 0 
	 50 ,	 0 
	 50 ,	 0 
	 50 ,	 0 
END
