CITIFILE A.01.01
#Momentum: B.11.40.482 (*) built: Dec  2 2014 
#Momentum Date and Time: Thu Jun 16 16:51:11 2022

NAME Momentum.SP

#  mode: MW    reference: S_50

CONSTANT NBR_OF_PORTS 1

CONSTANT NORMALIZATION 1

VAR freq MAG 245

DATA S[1,1] RI
DATA S_50[1,1] RI
DATA S_Z0[1,1] RI
DATA GAMMA[1] RI
DATA Z0[1] RI
DATA PORTZ[1] RI

VAR_LIST_BEGIN
	 2000000000
	 2010416667
	 2020833333
	 2031250000
	 2041666667
	 2052083333
	 2062500000
	 2072916667
	 2083333334
	 2088541667
	 2093750000
	 2098958334
	 2104166667
	 2109375000
	 2114583334
	 2119791667
	 2125000000
	 2130208334
	 2135416667
	 2140625000
	 2145833334
	 2151041667
	 2156250000
	 2161458334
	 2166666667
	 2171875000
	 2177083334
	 2182291667
	 2187500000
	 2192708334
	 2197916667
	 2203125000
	 2208333334
	 2213541667
	 2218750000
	 2223958333
	 2229166667
	 2231770833
	 2234375000
	 2236979167
	 2239583333
	 2242187500
	 2244791667
	 2247395833
	 2250000000
	 2252604167
	 2255208333
	 2257812500
	 2260416667
	 2263020833
	 2265625000
	 2268229167
	 2270833333
	 2273437500
	 2276041667
	 2278645833
	 2281250000
	 2283854167
	 2286458333
	 2289062500
	 2291666667
	 2294270833
	 2296875000
	 2299479166
	 2302083333
	 2303385416
	 2304687500
	 2305989583
	 2307291666
	 2308593750
	 2309895833
	 2311197916
	 2312500000
	 2313802083
	 2315104166
	 2316406250
	 2317708333
	 2319010416
	 2320312500
	 2321614583
	 2322916666
	 2324218750
	 2325520833
	 2326822916
	 2328125000
	 2329427083
	 2330729166
	 2332031250
	 2333333333
	 2335069444
	 2336805555
	 2338541666
	 2340277777
	 2342013889
	 2343750000
	 2345486111
	 2347222222
	 2348958333
	 2350694444
	 2352430555
	 2354166666
	 2355902777
	 2357638889
	 2359375000
	 2361111111
	 2362847222
	 2364583333
	 2366319444
	 2368055555
	 2369791666
	 2371527777
	 2373263889
	 2375000000
	 2376736111
	 2378472222
	 2380208333
	 2381944444
	 2383680555
	 2385416666
	 2387152777
	 2388888889
	 2390625000
	 2392361111
	 2394097222
	 2395833333
	 2397569444
	 2399305555
	 2401041666
	 2402777777
	 2404513888
	 2406250000
	 2407986111
	 2409722222
	 2411458333
	 2413194444
	 2414930555
	 2416666666
	 2418402777
	 2420138888
	 2421875000
	 2423611111
	 2425347222
	 2427083333
	 2428819444
	 2430555555
	 2432291666
	 2434027777
	 2435763888
	 2437500000
	 2439236111
	 2440972222
	 2442708333
	 2444444444
	 2447916666
	 2451388888
	 2454861111
	 2458333333
	 2461805555
	 2465277777
	 2468750000
	 2472222222
	 2475694444
	 2479166666
	 2482638889
	 2486111111
	 2489583333
	 2493055555
	 2496527778
	 2500000000
	 2503472222
	 2506944444
	 2510416666
	 2513888889
	 2517361111
	 2520833333
	 2524305555
	 2527777778
	 2531250000
	 2534722222
	 2538194444
	 2541666667
	 2545138889
	 2548611111
	 2552083333
	 2555555556
	 2559027778
	 2562500000
	 2565972222
	 2569444444
	 2572916667
	 2576388889
	 2579861111
	 2583333333
	 2586805556
	 2590277778
	 2593750000
	 2597222222
	 2600694445
	 2604166667
	 2607638889
	 2611111111
	 2618055556
	 2625000000
	 2631944445
	 2638888889
	 2645833334
	 2652777778
	 2659722223
	 2666666667
	 2671875000
	 2677083334
	 2682291667
	 2687500000
	 2692708334
	 2697916667
	 2703125000
	 2708333334
	 2718750000
	 2729166667
	 2739583334
	 2750000001
	 2760416667
	 2770833334
	 2781250001
	 2791666667
	 2802083334
	 2812500001
	 2822916667
	 2833333334
	 2843750001
	 2854166667
	 2864583334
	 2875000001
	 2885416667
	 2895833334
	 2906250000
	 2916666667
	 2927083334
	 2937500000
	 2947916667
	 2958333334
	 2968750000
	 2979166667
	 2989583333
	 3000000000
VAR_LIST_END

BEGIN
	 0.95379,	-0.26226
	 0.94721,	-0.28381
	 0.94005,	-0.30542
	 0.93227,	-0.32709
	 0.92386,	-0.3488
	 0.9148,	-0.37057
	 0.90504,	-0.39239
	 0.89456,	-0.41426
	 0.88331,	-0.43619
	 0.87739,	-0.44717
	 0.87127,	-0.45817
	 0.86492,	-0.46919
	 0.85836,	-0.48021
	 0.85157,	-0.49126
	 0.84454,	-0.50231
	 0.83727,	-0.51338
	 0.82974,	-0.52447
	 0.82194,	-0.53557
	 0.81387,	-0.54669
	 0.80551,	-0.55781
	 0.79684,	-0.56896
	 0.78787,	-0.58011
	 0.77856,	-0.59128
	 0.7689,	-0.60245
	 0.75887,	-0.61364
	 0.74846,	-0.62483
	 0.73764,	-0.63602
	 0.72639,	-0.64721
	 0.71468,	-0.6584
	 0.70248,	-0.66958
	 0.68976,	-0.68074
	 0.67648,	-0.69187
	 0.66261,	-0.70297
	 0.64811,	-0.71403
	 0.63292,	-0.72502
	 0.61699,	-0.73593
	 0.60027,	-0.74674
	 0.5916,	-0.75209
	 0.5827,	-0.75742
	 0.57356,	-0.76269
	 0.56418,	-0.76793
	 0.55456,	-0.77311
	 0.54466,	-0.77823
	 0.5345,	-0.7833
	 0.52404,	-0.78829
	 0.51329,	-0.7932
	 0.50222,	-0.79802
	 0.49083,	-0.80274
	 0.47909,	-0.80736
	 0.467,	-0.81185
	 0.45453,	-0.81621
	 0.44168,	-0.82041
	 0.42841,	-0.82445
	 0.41471,	-0.8283
	 0.40057,	-0.83195
	 0.38596,	-0.83536
	 0.37086,	-0.83852
	 0.35525,	-0.84139
	 0.3391,	-0.84394
	 0.3224,	-0.84613
	 0.30511,	-0.84793
	 0.28722,	-0.84929
	 0.2687,	-0.85016
	 0.24952,	-0.85048
	 0.22966,	-0.85019
	 0.21947,	-0.8498
	 0.20911,	-0.84922
	 0.19856,	-0.84846
	 0.18783,	-0.8475
	 0.17692,	-0.84632
	 0.16582,	-0.84493
	 0.15453,	-0.84329
	 0.14306,	-0.84141
	 0.13139,	-0.83927
	 0.11954,	-0.83686
	 0.10749,	-0.83415
	 0.095266,	-0.83113
	 0.082844,	-0.82779
	 0.070236,	-0.82411
	 0.057445,	-0.82006
	 0.044474,	-0.81564
	 0.031327,	-0.81082
	 0.01801,	-0.80558
	 0.0045304,	-0.7999
	-0.0091044,	-0.79375
	-0.022885,	-0.78711
	-0.036799,	-0.77996
	-0.050836,	-0.77227
	-0.064979,	-0.76402
	-0.083972,	-0.7521
	-0.10307,	-0.73906
	-0.12224,	-0.72484
	-0.1414,	-0.70937
	-0.16048,	-0.6926
	-0.1794,	-0.67444
	-0.19807,	-0.65484
	-0.21637,	-0.63375
	-0.23418,	-0.6111
	-0.25138,	-0.58685
	-0.26782,	-0.56096
	-0.28333,	-0.53342
	-0.29775,	-0.5042
	-0.31088,	-0.47333
	-0.32253,	-0.44082
	-0.3325,	-0.40673
	-0.34058,	-0.37114
	-0.34655,	-0.33417
	-0.35021,	-0.29594
	-0.35136,	-0.25665
	-0.3498,	-0.21648
	-0.34537,	-0.17569
	-0.33793,	-0.13455
	-0.32736,	-0.093355
	-0.3136,	-0.052433
	-0.29661,	-0.012127
	-0.27643,	 0.02721
	-0.25311,	 0.065224
	-0.2268,	 0.10156
	-0.19765,	 0.1359
	-0.16589,	 0.16794
	-0.13179,	 0.1974
	-0.095644,	 0.22406
	-0.057777,	 0.24772
	-0.018538,	 0.26827
	 0.021719,	 0.28562
	 0.06264,	 0.29973
	 0.10387,	 0.31063
	 0.1451,	 0.31838
	 0.18601,	 0.3231
	 0.22632,	 0.3249
	 0.26579,	 0.32397
	 0.30419,	 0.32048
	 0.34136,	 0.31465
	 0.37714,	 0.30667
	 0.41142,	 0.29676
	 0.44412,	 0.28514
	 0.47517,	 0.27201
	 0.50455,	 0.25756
	 0.53224,	 0.24199
	 0.55825,	 0.22548
	 0.58261,	 0.20819
	 0.60535,	 0.19026
	 0.62651,	 0.17184
	 0.64615,	 0.15304
	 0.66433,	 0.13399
	 0.68111,	 0.11476
	 0.69656,	 0.09546
	 0.71075,	 0.07615
	 0.72374,	 0.056899
	 0.73559,	 0.037763
	 0.74638,	 0.01879
	 0.75617,	 2.0755e-005
	 0.76502,	-0.018512
	 0.78014,	-0.054763
	 0.79217,	-0.089799
	 0.80152,	-0.12352
	 0.80853,	-0.15587
	 0.81352,	-0.18685
	 0.81675,	-0.21647
	 0.81847,	-0.24474
	 0.81888,	-0.27173
	 0.81816,	-0.29747
	 0.81647,	-0.32203
	 0.81392,	-0.34547
	 0.81065,	-0.36783
	 0.80674,	-0.38919
	 0.80229,	-0.40959
	 0.79737,	-0.4291
	 0.79203,	-0.44776
	 0.78635,	-0.46562
	 0.78035,	-0.48274
	 0.77409,	-0.49915
	 0.7676,	-0.51489
	 0.76091,	-0.53002
	 0.75405,	-0.54455
	 0.74704,	-0.55853
	 0.7399,	-0.57198
	 0.73265,	-0.58494
	 0.72531,	-0.59743
	 0.71788,	-0.60948
	 0.71038,	-0.62111
	 0.70282,	-0.63234
	 0.69521,	-0.6432
	 0.68756,	-0.6537
	 0.67986,	-0.66386
	 0.67214,	-0.6737
	 0.66439,	-0.68323
	 0.65662,	-0.69247
	 0.64883,	-0.70143
	 0.64102,	-0.71012
	 0.63321,	-0.71855
	 0.62538,	-0.72675
	 0.61755,	-0.7347
	 0.60971,	-0.74244
	 0.60187,	-0.74996
	 0.59403,	-0.75727
	 0.58619,	-0.76438
	 0.57835,	-0.7713
	 0.57051,	-0.77804
	 0.56267,	-0.7846
	 0.55483,	-0.79099
	 0.53917,	-0.80328
	 0.52353,	-0.81494
	 0.50791,	-0.82603
	 0.49231,	-0.83656
	 0.47673,	-0.84658
	 0.46117,	-0.85611
	 0.44563,	-0.86517
	 0.43012,	-0.87379
	 0.4185,	-0.87998
	 0.4069,	-0.88593
	 0.3953,	-0.89166
	 0.38372,	-0.89718
	 0.37215,	-0.90248
	 0.36059,	-0.90758
	 0.34905,	-0.91247
	 0.33751,	-0.91718
	 0.31447,	-0.92601
	 0.29148,	-0.93412
	 0.26853,	-0.94153
	 0.24562,	-0.94826
	 0.22276,	-0.95434
	 0.19995,	-0.95978
	 0.17718,	-0.96461
	 0.15445,	-0.96884
	 0.13178,	-0.97249
	 0.10916,	-0.97556
	 0.086601,	-0.97806
	 0.064094,	-0.98002
	 0.041649,	-0.98143
	 0.019269,	-0.9823
	-0.0030406,	-0.98265
	-0.025276,	-0.98247
	-0.047433,	-0.98178
	-0.069506,	-0.98058
	-0.091491,	-0.97887
	-0.11338,	-0.97666
	-0.13517,	-0.97396
	-0.15685,	-0.97076
	-0.17842,	-0.96708
	-0.19988,	-0.9629
	-0.22121,	-0.95825
	-0.24241,	-0.95312
	-0.26347,	-0.94752
	-0.28439,	-0.94144
END
BEGIN
	 0.95379,	-0.26226
	 0.94721,	-0.28381
	 0.94005,	-0.30542
	 0.93227,	-0.32709
	 0.92386,	-0.3488
	 0.9148,	-0.37057
	 0.90504,	-0.39239
	 0.89456,	-0.41426
	 0.88331,	-0.43619
	 0.87739,	-0.44717
	 0.87127,	-0.45817
	 0.86492,	-0.46919
	 0.85836,	-0.48021
	 0.85157,	-0.49126
	 0.84454,	-0.50231
	 0.83727,	-0.51338
	 0.82974,	-0.52447
	 0.82194,	-0.53557
	 0.81387,	-0.54669
	 0.80551,	-0.55781
	 0.79684,	-0.56896
	 0.78787,	-0.58011
	 0.77856,	-0.59128
	 0.7689,	-0.60245
	 0.75887,	-0.61364
	 0.74846,	-0.62483
	 0.73764,	-0.63602
	 0.72639,	-0.64721
	 0.71468,	-0.6584
	 0.70248,	-0.66958
	 0.68976,	-0.68074
	 0.67648,	-0.69187
	 0.66261,	-0.70297
	 0.64811,	-0.71403
	 0.63292,	-0.72502
	 0.61699,	-0.73593
	 0.60027,	-0.74674
	 0.5916,	-0.75209
	 0.5827,	-0.75742
	 0.57356,	-0.76269
	 0.56418,	-0.76793
	 0.55456,	-0.77311
	 0.54466,	-0.77823
	 0.5345,	-0.7833
	 0.52404,	-0.78829
	 0.51329,	-0.7932
	 0.50222,	-0.79802
	 0.49083,	-0.80274
	 0.47909,	-0.80736
	 0.467,	-0.81185
	 0.45453,	-0.81621
	 0.44168,	-0.82041
	 0.42841,	-0.82445
	 0.41471,	-0.8283
	 0.40057,	-0.83195
	 0.38596,	-0.83536
	 0.37086,	-0.83852
	 0.35525,	-0.84139
	 0.3391,	-0.84394
	 0.3224,	-0.84613
	 0.30511,	-0.84793
	 0.28722,	-0.84929
	 0.2687,	-0.85016
	 0.24952,	-0.85048
	 0.22966,	-0.85019
	 0.21947,	-0.8498
	 0.20911,	-0.84922
	 0.19856,	-0.84846
	 0.18783,	-0.8475
	 0.17692,	-0.84632
	 0.16582,	-0.84493
	 0.15453,	-0.84329
	 0.14306,	-0.84141
	 0.13139,	-0.83927
	 0.11954,	-0.83686
	 0.10749,	-0.83415
	 0.095266,	-0.83113
	 0.082844,	-0.82779
	 0.070236,	-0.82411
	 0.057445,	-0.82006
	 0.044474,	-0.81564
	 0.031327,	-0.81082
	 0.01801,	-0.80558
	 0.0045304,	-0.7999
	-0.0091044,	-0.79375
	-0.022885,	-0.78711
	-0.036799,	-0.77996
	-0.050836,	-0.77227
	-0.064979,	-0.76402
	-0.083972,	-0.7521
	-0.10307,	-0.73906
	-0.12224,	-0.72484
	-0.1414,	-0.70937
	-0.16048,	-0.6926
	-0.1794,	-0.67444
	-0.19807,	-0.65484
	-0.21637,	-0.63375
	-0.23418,	-0.6111
	-0.25138,	-0.58685
	-0.26782,	-0.56096
	-0.28333,	-0.53342
	-0.29775,	-0.5042
	-0.31088,	-0.47333
	-0.32253,	-0.44082
	-0.3325,	-0.40673
	-0.34058,	-0.37114
	-0.34655,	-0.33417
	-0.35021,	-0.29594
	-0.35136,	-0.25665
	-0.3498,	-0.21648
	-0.34537,	-0.17569
	-0.33793,	-0.13455
	-0.32736,	-0.093355
	-0.3136,	-0.052433
	-0.29661,	-0.012127
	-0.27643,	 0.02721
	-0.25311,	 0.065224
	-0.2268,	 0.10156
	-0.19765,	 0.1359
	-0.16589,	 0.16794
	-0.13179,	 0.1974
	-0.095644,	 0.22406
	-0.057777,	 0.24772
	-0.018538,	 0.26827
	 0.021719,	 0.28562
	 0.06264,	 0.29973
	 0.10387,	 0.31063
	 0.1451,	 0.31838
	 0.18601,	 0.3231
	 0.22632,	 0.3249
	 0.26579,	 0.32397
	 0.30419,	 0.32048
	 0.34136,	 0.31465
	 0.37714,	 0.30667
	 0.41142,	 0.29676
	 0.44412,	 0.28514
	 0.47517,	 0.27201
	 0.50455,	 0.25756
	 0.53224,	 0.24199
	 0.55825,	 0.22548
	 0.58261,	 0.20819
	 0.60535,	 0.19026
	 0.62651,	 0.17184
	 0.64615,	 0.15304
	 0.66433,	 0.13399
	 0.68111,	 0.11476
	 0.69656,	 0.09546
	 0.71075,	 0.07615
	 0.72374,	 0.056899
	 0.73559,	 0.037763
	 0.74638,	 0.01879
	 0.75617,	 2.0755e-005
	 0.76502,	-0.018512
	 0.78014,	-0.054763
	 0.79217,	-0.089799
	 0.80152,	-0.12352
	 0.80853,	-0.15587
	 0.81352,	-0.18685
	 0.81675,	-0.21647
	 0.81847,	-0.24474
	 0.81888,	-0.27173
	 0.81816,	-0.29747
	 0.81647,	-0.32203
	 0.81392,	-0.34547
	 0.81065,	-0.36783
	 0.80674,	-0.38919
	 0.80229,	-0.40959
	 0.79737,	-0.4291
	 0.79203,	-0.44776
	 0.78635,	-0.46562
	 0.78035,	-0.48274
	 0.77409,	-0.49915
	 0.7676,	-0.51489
	 0.76091,	-0.53002
	 0.75405,	-0.54455
	 0.74704,	-0.55853
	 0.7399,	-0.57198
	 0.73265,	-0.58494
	 0.72531,	-0.59743
	 0.71788,	-0.60948
	 0.71038,	-0.62111
	 0.70282,	-0.63234
	 0.69521,	-0.6432
	 0.68756,	-0.6537
	 0.67986,	-0.66386
	 0.67214,	-0.6737
	 0.66439,	-0.68323
	 0.65662,	-0.69247
	 0.64883,	-0.70143
	 0.64102,	-0.71012
	 0.63321,	-0.71855
	 0.62538,	-0.72675
	 0.61755,	-0.7347
	 0.60971,	-0.74244
	 0.60187,	-0.74996
	 0.59403,	-0.75727
	 0.58619,	-0.76438
	 0.57835,	-0.7713
	 0.57051,	-0.77804
	 0.56267,	-0.7846
	 0.55483,	-0.79099
	 0.53917,	-0.80328
	 0.52353,	-0.81494
	 0.50791,	-0.82603
	 0.49231,	-0.83656
	 0.47673,	-0.84658
	 0.46117,	-0.85611
	 0.44563,	-0.86517
	 0.43012,	-0.87379
	 0.4185,	-0.87998
	 0.4069,	-0.88593
	 0.3953,	-0.89166
	 0.38372,	-0.89718
	 0.37215,	-0.90248
	 0.36059,	-0.90758
	 0.34905,	-0.91247
	 0.33751,	-0.91718
	 0.31447,	-0.92601
	 0.29148,	-0.93412
	 0.26853,	-0.94153
	 0.24562,	-0.94826
	 0.22276,	-0.95434
	 0.19995,	-0.95978
	 0.17718,	-0.96461
	 0.15445,	-0.96884
	 0.13178,	-0.97249
	 0.10916,	-0.97556
	 0.086601,	-0.97806
	 0.064094,	-0.98002
	 0.041649,	-0.98143
	 0.019269,	-0.9823
	-0.0030406,	-0.98265
	-0.025276,	-0.98247
	-0.047433,	-0.98178
	-0.069506,	-0.98058
	-0.091491,	-0.97887
	-0.11338,	-0.97666
	-0.13517,	-0.97396
	-0.15685,	-0.97076
	-0.17842,	-0.96708
	-0.19988,	-0.9629
	-0.22121,	-0.95825
	-0.24241,	-0.95312
	-0.26347,	-0.94752
	-0.28439,	-0.94144
END
BEGIN
	 0.95223,	-0.26711
	 0.94541,	-0.28904
	 0.93799,	-0.31101
	 0.92993,	-0.33303
	 0.92122,	-0.35509
	 0.91183,	-0.3772
	 0.90172,	-0.39934
	 0.89087,	-0.42153
	 0.87924,	-0.44376
	 0.87312,	-0.45489
	 0.86678,	-0.46603
	 0.86022,	-0.47718
	 0.85344,	-0.48834
	 0.84642,	-0.49951
	 0.83915,	-0.51069
	 0.83164,	-0.52188
	 0.82386,	-0.53307
	 0.81582,	-0.54428
	 0.80748,	-0.5555
	 0.79886,	-0.56672
	 0.78992,	-0.57795
	 0.78067,	-0.58918
	 0.77107,	-0.60042
	 0.76112,	-0.61166
	 0.7508,	-0.6229
	 0.74008,	-0.63413
	 0.72895,	-0.64536
	 0.71737,	-0.65658
	 0.70533,	-0.66778
	 0.6928,	-0.67896
	 0.67974,	-0.69011
	 0.66611,	-0.70122
	 0.65189,	-0.71229
	 0.63702,	-0.72328
	 0.62146,	-0.7342
	 0.60515,	-0.74502
	 0.58805,	-0.75572
	 0.57917,	-0.76101
	 0.57008,	-0.76626
	 0.56075,	-0.77146
	 0.55117,	-0.77661
	 0.54134,	-0.7817
	 0.53125,	-0.78673
	 0.52088,	-0.79169
	 0.51022,	-0.79656
	 0.49927,	-0.80136
	 0.488,	-0.80605
	 0.4764,	-0.81064
	 0.46446,	-0.8151
	 0.45217,	-0.81944
	 0.4395,	-0.82363
	 0.42644,	-0.82766
	 0.41298,	-0.83151
	 0.39909,	-0.83517
	 0.38475,	-0.8386
	 0.36995,	-0.84179
	 0.35467,	-0.84471
	 0.33888,	-0.84733
	 0.32256,	-0.84962
	 0.30568,	-0.85154
	 0.28824,	-0.85304
	 0.2702,	-0.85409
	 0.25154,	-0.85464
	 0.23223,	-0.85462
	 0.21227,	-0.85397
	 0.20203,	-0.8534
	 0.19162,	-0.85263
	 0.18103,	-0.85168
	 0.17027,	-0.85052
	 0.15933,	-0.84914
	 0.1482,	-0.84754
	 0.1369,	-0.8457
	 0.12541,	-0.84361
	 0.11374,	-0.84126
	 0.10189,	-0.83862
	 0.089857,	-0.83569
	 0.07764,	-0.83245
	 0.065243,	-0.82888
	 0.052668,	-0.82496
	 0.039919,	-0.82069
	 0.026999,	-0.81603
	 0.013913,	-0.81098
	 0.00066787,	-0.8055
	-0.01273,	-0.79958
	-0.026272,	-0.79319
	-0.039948,	-0.78632
	-0.053747,	-0.77893
	-0.067656,	-0.77101
	-0.081658,	-0.76253
	-0.10044,	-0.7503
	-0.11932,	-0.73696
	-0.13823,	-0.72246
	-0.15712,	-0.70672
	-0.1759,	-0.68969
	-0.1945,	-0.6713
	-0.21282,	-0.65148
	-0.23076,	-0.6302
	-0.2482,	-0.60739
	-0.265,	-0.58301
	-0.28103,	-0.55702
	-0.29612,	-0.52942
	-0.31011,	-0.50018
	-0.32282,	-0.46933
	-0.33406,	-0.43688
	-0.34363,	-0.4029
	-0.35132,	-0.36746
	-0.35694,	-0.33067
	-0.36027,	-0.29267
	-0.36112,	-0.25362
	-0.35931,	-0.21374
	-0.35468,	-0.17324
	-0.34709,	-0.13241
	-0.33643,	-0.091528
	-0.32262,	-0.05091
	-0.30564,	-0.01089
	-0.28551,	 0.028188
	-0.2623,	 0.065978
	-0.23611,	 0.10213
	-0.20712,	 0.13634
	-0.17553,	 0.1683
	-0.1416,	 0.19773
	-0.10562,	 0.22441
	-0.067908,	 0.24815
	-0.028795,	 0.26882
	 0.011371,	 0.28632
	 0.052239,	 0.30062
	 0.093469,	 0.31173
	 0.13473,	 0.31971
	 0.17572,	 0.32465
	 0.21616,	 0.32668
	 0.25581,	 0.32596
	 0.29443,	 0.32267
	 0.33184,	 0.317
	 0.3679,	 0.30916
	 0.40248,	 0.29936
	 0.4355,	 0.28781
	 0.46688,	 0.27471
	 0.4966,	 0.26027
	 0.52463,	 0.24467
	 0.55098,	 0.22809
	 0.57567,	 0.2107
	 0.59873,	 0.19264
	 0.62021,	 0.17407
	 0.64015,	 0.15509
	 0.65861,	 0.13583
	 0.67565,	 0.11639
	 0.69134,	 0.096849
	 0.70575,	 0.077288
	 0.71894,	 0.057775
	 0.73098,	 0.038368
	 0.74193,	 0.019117
	 0.75187,	 6.3184e-005
	 0.76084,	-0.018758
	 0.77615,	-0.055589
	 0.78831,	-0.091203
	 0.79772,	-0.12549
	 0.80475,	-0.1584
	 0.8097,	-0.18991
	 0.81285,	-0.22003
	 0.81446,	-0.2488
	 0.81473,	-0.27624
	 0.81384,	-0.30242
	 0.81195,	-0.32738
	 0.80919,	-0.3512
	 0.80569,	-0.37392
	 0.80155,	-0.3956
	 0.79684,	-0.41631
	 0.79166,	-0.4361
	 0.78606,	-0.45503
	 0.78011,	-0.47313
	 0.77384,	-0.49047
	 0.7673,	-0.50709
	 0.76053,	-0.52302
	 0.75357,	-0.53832
	 0.74643,	-0.55301
	 0.73914,	-0.56713
	 0.73172,	-0.58071
	 0.72419,	-0.59379
	 0.71657,	-0.60638
	 0.70887,	-0.61852
	 0.70111,	-0.63024
	 0.69328,	-0.64154
	 0.6854,	-0.65246
	 0.67748,	-0.66302
	 0.66953,	-0.67322
	 0.66155,	-0.6831
	 0.65355,	-0.69266
	 0.64552,	-0.70191
	 0.63749,	-0.71089
	 0.62944,	-0.71958
	 0.62138,	-0.72802
	 0.61332,	-0.73621
	 0.60525,	-0.74415
	 0.59718,	-0.75187
	 0.58911,	-0.75937
	 0.58104,	-0.76665
	 0.57298,	-0.77373
	 0.56492,	-0.78062
	 0.55686,	-0.78731
	 0.54881,	-0.79383
	 0.54076,	-0.80016
	 0.52469,	-0.81234
	 0.50865,	-0.82387
	 0.49264,	-0.83481
	 0.47666,	-0.8452
	 0.46072,	-0.85505
	 0.44481,	-0.86439
	 0.42893,	-0.87327
	 0.41309,	-0.88169
	 0.40123,	-0.88771
	 0.38939,	-0.89351
	 0.37757,	-0.89907
	 0.36576,	-0.90441
	 0.35398,	-0.90954
	 0.34221,	-0.91445
	 0.33046,	-0.91916
	 0.31872,	-0.92368
	 0.29531,	-0.93212
	 0.27196,	-0.93983
	 0.24868,	-0.94682
	 0.22547,	-0.95312
	 0.20232,	-0.95876
	 0.17924,	-0.96376
	 0.15623,	-0.96813
	 0.13329,	-0.9719
	 0.11042,	-0.97507
	 0.087637,	-0.97766
	 0.064923,	-0.97969
	 0.04229,	-0.98116
	 0.019741,	-0.98208
	-0.0027205,	-0.98246
	-0.02509,	-0.98232
	-0.047363,	-0.98165
	-0.069536,	-0.98046
	-0.091604,	-0.97877
	-0.11356,	-0.97657
	-0.1354,	-0.97388
	-0.15712,	-0.97069
	-0.17871,	-0.96701
	-0.20017,	-0.96285
	-0.2215,	-0.95822
	-0.24268,	-0.9531
	-0.2637,	-0.94752
	-0.28458,	-0.94147
	-0.30528,	-0.93496
END
BEGIN
	 0.1035470898,	 76.01197682
	 0.104100754,	 76.41042961
	 0.1046545895,	 76.80891669
	 0.1052085965,	 77.20743817
	 0.1057627754,	 77.6059942
	 0.1063171277,	 78.00458496
	 0.1068716524,	 78.40321017
	 0.1074263456,	 78.80186813
	 0.107981209,	 79.2005596
	 0.1082587046,	 79.39991794
	 0.1085362428,	 79.59928468
	 0.1088138237,	 79.79865986
	 0.1090914473,	 79.99804347
	 0.1093691136,	 80.19743554
	 0.1096468226,	 80.39683607
	 0.1099245744,	 80.59624508
	 0.110202369,	 80.79566257
	 0.1104802063,	 80.99508857
	 0.1107580866,	 81.19452308
	 0.1110360096,	 81.39396611
	 0.1113139756,	 81.59341768
	 0.1115919844,	 81.7928778
	 0.1118700362,	 81.99234648
	 0.112148131,	 82.19182374
	 0.1124262687,	 82.39130958
	 0.1127044495,	 82.59080402
	 0.1129826733,	 82.79030707
	 0.1132609401,	 82.98981874
	 0.1135392501,	 83.18933904
	 0.1138176031,	 83.388868
	 0.1140959993,	 83.58840561
	 0.1143744387,	 83.78795189
	 0.1146529212,	 83.98750686
	 0.114931447,	 84.18707053
	 0.115210016,	 84.3866429
	 0.1154886282,	 84.58622399
	 0.1157672838,	 84.78581381
	 0.1159066278,	 84.88561201
	 0.1160459827,	 84.98541238
	 0.1161853484,	 85.08521495
	 0.1163247249,	 85.18501971
	 0.1164641122,	 85.28482666
	 0.1166035105,	 85.3846358
	 0.1167429195,	 85.48444714
	 0.1168823394,	 85.58426068
	 0.1170217702,	 85.68407642
	 0.1171612118,	 85.78389435
	 0.1173006643,	 85.88371449
	 0.1174401276,	 85.98353683
	 0.1175796019,	 86.08336137
	 0.1177190869,	 86.18318812
	 0.1178585829,	 86.28301708
	 0.1179980897,	 86.38284824
	 0.1181376074,	 86.48268162
	 0.118277136,	 86.58251721
	 0.1184166755,	 86.68235501
	 0.1185562259,	 86.78219503
	 0.1186957872,	 86.88203726
	 0.1188353593,	 86.98188171
	 0.1189749424,	 87.08172839
