CITIFILE A.01.01
#Momentum: B.11.40.482 (*) built: Dec  2 2014 
#Momentum Date and Time: Wed May 11 09:50:02 2022

NAME Momentum.SP

#  mode: MW    project: proj

CONSTANT NBR_OF_PORTS 2

CONSTANT NORMALIZATION 1

VAR freq MAG 71

DATA S[1,1] RI
DATA S[1,2] RI
DATA S[2,1] RI
DATA S[2,2] RI
DATA PORTZ[1] RI
DATA PORTZ[2] RI

VAR_LIST_BEGIN
	 1000000000
	 1050000000
	 1100000000
	 1150000000
	 1200000000
	 1250000000
	 1300000000
	 1350000000
	 1400000000
	 1450000000
	 1500000000
	 1550000000
	 1600000000
	 1650000000
	 1700000000
	 1750000000
	 1800000000
	 1850000000
	 1900000000
	 1950000000
	 2000000000
	 2050000000
	 2100000000
	 2150000000
	 2200000000
	 2250000000
	 2300000000
	 2350000000
	 2400000000
	 2450000000
	 2500000000
	 2550000000
	 2600000000
	 2650000000
	 2700000000
	 2750000000
	 2800000000
	 2850000000
	 2900000000
	 2950000000
	 3000000000
	 3050000000
	 3100000000
	 3150000000
	 3200000000
	 3250000000
	 3300000000
	 3350000000
	 3400000000
	 3450000000
	 3500000000
	 3550000000
	 3600000000
	 3650000000
	 3700000000
	 3750000000
	 3800000000
	 3850000000
	 3900000000
	 3950000000
	 4000000000
	 4050000000
	 4100000000
	 4150000000
	 4200000000
	 4250000000
	 4300000000
	 4350000000
	 4400000000
	 4450000000
	 4500000000
VAR_LIST_END

BEGIN
	 0.623877502,	-0.778031528
	 0.573175045,	-0.815573269
	 0.517154048,	-0.851612357
	 0.455306383,	-0.885571718
	 0.387095153,	-0.916715004
	 0.311972051,	-0.944104524
	 0.229397239,	-0.966552684
	 0.138876777,	-0.982558266
	 0.040021284,	-0.990226844
	-0.0673682006,	-0.987169547
	-0.183160586,	-0.970369823
	-0.306682421,	-0.936000841
	-0.436363231,	-0.879154599
	-0.569077135,	-0.793415923
	-0.698792844,	-0.670160618
	-0.81328901,	-0.497603468
	-0.885469878,	-0.260960514
	-0.850852706,	 0.0449590889
	-0.584805231,	 0.331336832
	-0.147593177,	 0.253987058
	-0.114183085,	-0.119842472
	-0.364180888,	-0.211770885
	-0.528452362,	-0.079076427
	-0.550776909,	 0.112278327
	-0.446544276,	 0.272722595
	-0.244094068,	 0.315183336
	-0.0709240372,	 0.127811849
	-0.235951535,	-0.171918922
	-0.621631825,	-0.1168705
	-0.78836429,	 0.185682983
	-0.759329902,	 0.460974086
	-0.651039964,	 0.656816304
	-0.518369627,	 0.788613065
	-0.382425101,	 0.874700113
	-0.251407037,	 0.928130513
	-0.128529285,	 0.957759564
	-0.0149101233,	 0.969731781
	 0.0892861273,	 0.968446727
	 0.184353405,	 0.957140407
	 0.270806908,	 0.938239805
	 0.349260108,	 0.913589088
	 0.42035559,	 0.884601508
	 0.48472678,	 0.852365591
	 0.542971813,	 0.817724981
	 0.5956623,	 0.781322745
	 0.64330801,	 0.743662393
	 0.686376476,	 0.705128375
	 0.725288816,	 0.666013948
	 0.760422322,	 0.626540164
	 0.792113128,	 0.586871049
	 0.820659279,	 0.547125433
	 0.846324737,	 0.507384751
	 0.86934467,	 0.467695247
	 0.889917896,	 0.428091017
	 0.908225285,	 0.388568795
	 0.924420918,	 0.349107309
	 0.938636123,	 0.309660511
	 0.950979902,	 0.270151822
	 0.961537451,	 0.230461321
	 0.97036471,	 0.190398718
	 0.977472997,	 0.14964541
	 0.982783368,	 0.107618071
	 0.985969227,	 0.0630887001
	 0.985724214,	 0.0128896736
	 0.973942913,	-0.0542195099
	 0.813162802,	-0.132708328
	 0.944714355,	 0.015493903
	 0.964661164,	-0.0788396051
	 0.871567677,	-0.124830645
	 0.96135369,	-0.0951592173
	 0.968567388,	-0.159051698
END
BEGIN
	 0.00459097848 ,	 0.00360762264 
	 0.00567813828 ,	 0.00389800419 
	 0.00703412561,	 0.00415476241
	 0.0087310451,	 0.00434042513
	 0.0108610039,	 0.00439571475
	 0.0135412695,	 0.0042278525
	 0.0169197405,	 0.00369214549
	 0.0211802292,	 0.00256332282
	 0.0265450809,	 0.000490216264
	 0.0332699576,	-0.00307672551
	 0.0416192097,	-0.00900253762
	 0.0517941823,	-0.0186604229
	 0.0637502975,	-0.0342531744
	 0.0767444836,	-0.0593558626
	 0.0881684665,	-0.0998030779
	 0.0904837653,	-0.164958505
	 0.0626419258,	-0.267958321
	-0.0524140422,	-0.413611635
	-0.370596094,	-0.514505776
	-0.821679107,	-0.230240915
	-0.819763041,	 0.36486615
	-0.473497082,	 0.681657158
	-0.13782662,	 0.761006128
	 0.149367043,	 0.740167786
	 0.423710392,	 0.649513171
	 0.700397989,	 0.443700031
	 0.880325228,	 0.0274093231
	 0.674209263,	-0.474522946
	 0.214178126,	-0.592256356
	-0.0492216964,	-0.432831593
	-0.130542074,	-0.272174684
	-0.139534224,	-0.164741905
	-0.12601951,	-0.0980310596
	-0.107477374,	-0.0568333805
	-0.0896430182,	-0.0311713474
	-0.0741632605,	-0.0150490911
	-0.0612642801,	-0.00487013937
	-0.0507046265,	 0.00154637425
	-0.0421219759,	 0.00555404838
	-0.0351590698,	 0.00800697395
	-0.029504027,	 0.00945251034
	-0.0248983261,	 0.0102459237
	-0.0211329827,	 0.0106202834
	-0.0180415862,	 0.0107299701
	-0.0154907574,	 0.0106776741
	-0.0133759939,	 0.0105326259
	-0.011614077,	 0.0103415861
	-0.010138841,	 0.0101366637
	-0.00889753369,	 0.00994036756
	-0.00784793525,	 0.00976906109
	-0.00695603562,	 0.00963547937
	-0.00619431838,	 0.00955064004
	-0.00554050988,	 0.0095257736
	-0.00497606991,	 0.00957261284
	-0.00448490665,	 0.00970739114
	-0.00405372484,	 0.00995121986
	-0.00366936146,	 0.0103362031
	-0.00331813292,	 0.0109096913
	-0.00298339736,	 0.0117473316
	-0.00263862285,	 0.0129773319
	-0.00223367118,	 0.0148313403
	-0.00165256367,	 0.0177692222
	-0.000564394637,	 0.0228318604
	 0.00228601469,	 0.0328783172
	 0.0148672144,	 0.0586210869
	 0.174741225,	 0.0932079853
	 0.0364781914,	-0.105730164
	-0.00569182894,	-0.0783898785
	-0.105855348,	-0.0561319288
	-0.0147079763,	 0.0260193787
	-0.00222065541,	 0.00879106653
END
BEGIN
	 0.00459097848 ,	 0.00360762264 
	 0.00567813828 ,	 0.00389800419 
	 0.00703412561,	 0.00415476241
	 0.0087310451,	 0.00434042513
	 0.0108610039,	 0.00439571475
	 0.0135412695,	 0.0042278525
	 0.0169197405,	 0.00369214549
	 0.0211802292,	 0.00256332282
	 0.0265450809,	 0.000490216264
	 0.0332699576,	-0.00307672551
	 0.0416192097,	-0.00900253762
	 0.0517941823,	-0.0186604229
	 0.0637502975,	-0.0342531744
	 0.0767444836,	-0.0593558626
	 0.0881684665,	-0.0998030779
	 0.0904837653,	-0.164958505
	 0.0626419258,	-0.267958321
	-0.0524140422,	-0.413611635
	-0.370596094,	-0.514505776
	-0.821679107,	-0.230240915
	-0.819763041,	 0.36486615
	-0.473497082,	 0.681657158
	-0.13782662,	 0.761006128
	 0.149367043,	 0.740167786
	 0.423710392,	 0.649513171
	 0.700397989,	 0.443700031
	 0.880325228,	 0.0274093231
	 0.674209263,	-0.474522946
	 0.214178126,	-0.592256356
	-0.0492216964,	-0.432831593
	-0.130542074,	-0.272174684
	-0.139534224,	-0.164741905
	-0.12601951,	-0.0980310596
	-0.107477374,	-0.0568333805
	-0.0896430182,	-0.0311713474
	-0.0741632605,	-0.0150490911
	-0.0612642801,	-0.00487013937
	-0.0507046265,	 0.00154637425
	-0.0421219759,	 0.00555404838
	-0.0351590698,	 0.00800697395
	-0.029504027,	 0.00945251034
	-0.0248983261,	 0.0102459237
	-0.0211329827,	 0.0106202834
	-0.0180415862,	 0.0107299701
	-0.0154907574,	 0.0106776741
	-0.0133759939,	 0.0105326259
	-0.011614077,	 0.0103415861
	-0.010138841,	 0.0101366637
	-0.00889753369,	 0.00994036756
	-0.00784793525,	 0.00976906109
	-0.00695603562,	 0.00963547937
	-0.00619431838,	 0.00955064004
	-0.00554050988,	 0.0095257736
	-0.00497606991,	 0.00957261284
	-0.00448490665,	 0.00970739114
	-0.00405372484,	 0.00995121986
	-0.00366936146,	 0.0103362031
	-0.00331813292,	 0.0109096913
	-0.00298339736,	 0.0117473316
	-0.00263862285,	 0.0129773319
	-0.00223367118,	 0.0148313403
	-0.00165256367,	 0.0177692222
	-0.000564394637,	 0.0228318604
	 0.00228601469,	 0.0328783172
	 0.0148672144,	 0.0586210869
	 0.174741225,	 0.0932079853
	 0.0364781914,	-0.105730164
	-0.00569182894,	-0.0783898785
	-0.105855348,	-0.0561319288
	-0.0147079763,	 0.0260193787
	-0.00222065541,	 0.00879106653
END
BEGIN
	 0.62377494,	-0.778112672
	 0.57305629,	-0.815655472
	 0.517017016,	-0.851694131
	 0.455148806,	-0.885651077
	 0.386914623,	-0.916789328
	 0.311766086,	-0.944170382
	 0.229163382,	-0.966605634
	 0.138612828,	-0.982592599
	 0.0397255822,	-0.990235305
	-0.0676963003,	-0.987143026
	-0.183520005,	-0.970297032
	-0.307069298,	-0.935868041
	-0.436769353,	-0.87894545
	-0.569487544,	-0.793111634
	-0.699181926,	-0.669740858
	-0.813613849,	-0.497049329
	-0.885658218,	-0.260264453
	-0.850786219,	 0.0457579074
	-0.58435226,	 0.332045102
	-0.146923291,	 0.254229733
	-0.113795152,	-0.119967031
	-0.364070728,	-0.211880265
	-0.528435323,	-0.0790995633
	-0.550779948,	 0.112277209
	-0.446600571,	 0.272673712
	-0.244330989,	 0.315084194
	-0.0714910808,	 0.127865041
	-0.23664081,	-0.171321019
	-0.62190564,	-0.115842439
	-0.788167414,	 0.186706561
	-0.758850395,	 0.461817802
	-0.650417903,	 0.657461879
	-0.517684788,	 0.78908296
	-0.381722483,	 0.875022527
	-0.250712603,	 0.928331261
	-0.12785811,	 0.957860636
	-0.0142706736,	 0.969751488
	 0.0898895642,	 0.968400151
	 0.184919006,	 0.957039905
	 0.271334584,	 0.938095454
	 0.349750758,	 0.913409083
	 0.420810736,	 0.88439248
	 0.485148262,	 0.852132899
	 0.543361649,	 0.817472918
	 0.596022528,	 0.781054734
	 0.643640604,	 0.743381161
	 0.686683334,	 0.704836047
	 0.725571697,	 0.665712173
	 0.760682857,	 0.626230172
	 0.792352794,	 0.586553731
	 0.820879415,	 0.546801366
	 0.846526525,	 0.507054256
	 0.86952915,	 0.467358382
	 0.890085975,	 0.427747582
	 0.908377721,	 0.388218324
	 0.924558323,	 0.348749021
	 0.938758948,	 0.309293223
	 0.951088404,	 0.269773814
	 0.961631635,	 0.230070064
	 0.9704442,	 0.189990386
	 0.977536734,	 0.14921391
	 0.982828843,	 0.107152921
	 0.985990103,	 0.0625696169
	 0.985700577,	 0.0122699618
	 0.973774145,	-0.0550828725
	 0.811466075,	-0.133821037
	 0.944394911,	 0.0161439721
	 0.964673568,	-0.0785057202
	 0.872250056,	-0.124686316
	 0.961416022,	-0.0956053725
	 0.968528694,	-0.159401306
END
BEGIN
	 50 ,	 0 
	 50 ,	 0 
	 50 ,	 0 
	 50 ,	 0 
	 50 ,	 0 
	 50 ,	 0 
	 50 ,	 0 
	 50 ,	 0 
	 50 ,	 0 
	 50 ,	 0 
	 50 ,	 0 
	 50 ,	 0 
	 50 ,	 0 
	 50 ,	 0 
	 50 ,	 0 
	 50 ,	 0 
	 50 ,	 0 
	 50 ,	 0 
	 50 ,	 0 
	 50 ,	 0 
	 50 ,	 0 
	 50 ,	 0 
	 50 ,	 0 
	 50 ,	 0 
	 50 ,	 0 
	 50 ,	 0 
	 50 ,	 0 
	 50 ,	 0 
	 50 ,	 0 
	 50 ,	 0 
	 50 ,	 0 
	 50 ,	 0 
	 50 ,	 0 
	 50 ,	 0 
	 50 ,	 0 
	 50 ,	 0 
	 50 ,	 0 
	 50 ,	 0 
	 50 ,	 0 
	 50 ,	 0 
	 50 ,	 0 
	 50 ,	 0 
	 50 ,	 0 
	 50 ,	 0 
	 50 ,	 0 
	 50 ,	 0 
	 50 ,	 0 
	 50 ,	 0 
	 50 ,	 0 
	 50 ,	 0 
	 50 ,	 0 
	 50 ,	 0 
	 50 ,	 0 
	 50 ,	 0 
	 50 ,	 0 
	 50 ,	 0 
	 50 ,	 0 
	 50 ,	 0 
	 50 ,	 0 
	 50 ,	 0 
	 50 ,	 0 
	 50 ,	 0 
	 50 ,	 0 
	 50 ,	 0 
	 50 ,	 0 
	 50 ,	 0 
	 50 ,	 0 
	 50 ,	 0 
	 50 ,	 0 
	 50 ,	 0 
	 50 ,	 0 
END
BEGIN
	 50 ,	 0 
	 50 ,	 0 
	 50 ,	 0 
	 50 ,	 0 
	 50 ,	 0 
	 50 ,	 0 
	 50 ,	 0 
	 50 ,	 0 
	 50 ,	 0 
	 50 ,	 0 
	 50 ,	 0 
	 50 ,	 0 
	 50 ,	 0 
	 50 ,	 0 
	 50 ,	 0 
	 50 ,	 0 
	 50 ,	 0 
	 50 ,	 0 
	 50 ,	 0 
	 50 ,	 0 
	 50 ,	 0 
	 50 ,	 0 
	 50 ,	 0 
	 50 ,	 0 
	 50 ,	 0 
	 50 ,	 0 
	 50 ,	 0 
	 50 ,	 0 
	 50 ,	 0 
	 50 ,	 0 
	 50 ,	 0 
	 50 ,	 0 
	 50 ,	 0 
	 50 ,	 0 
	 50 ,	 0 
	 50 ,	 0 
	 50 ,	 0 
	 50 ,	 0 
	 50 ,	 0 
	 50 ,	 0 
	 50 ,	 0 
	 50 ,	 0 
	 50 ,	 0 
	 50 ,	 0 
	 50 ,	 0 
	 50 ,	 0 
	 50 ,	 0 
	 50 ,	 0 
	 50 ,	 0 
	 50 ,	 0 
	 50 ,	 0 
	 50 ,	 0 
	 50 ,	 0 
	 50 ,	 0 
	 50 ,	 0 
	 50 ,	 0 
	 50 ,	 0 
	 50 ,	 0 
	 50 ,	 0 
	 50 ,	 0 
	 50 ,	 0 
	 50 ,	 0 
	 50 ,	 0 
	 50 ,	 0 
	 50 ,	 0 
	 50 ,	 0 
	 50 ,	 0 
	 50 ,	 0 
	 50 ,	 0 
	 50 ,	 0 
	 50 ,	 0 
END
