CITIFILE A.01.01
#Momentum: B.11.40.482 (*) built: Dec  2 2014 
#Momentum Date and Time: Wed Dec  1 21:32:35 2021

NAME Momentum.SP

#  mode: MW    project: proj

CONSTANT NBR_OF_PORTS 2

CONSTANT NORMALIZATION 1

VAR freq MAG 151

DATA S[1,1] RI
DATA S[1,2] RI
DATA S[2,1] RI
DATA S[2,2] RI
DATA S_50[1,1] RI
DATA S_50[1,2] RI
DATA S_50[2,1] RI
DATA S_50[2,2] RI
DATA S_Z0[1,1] RI
DATA S_Z0[1,2] RI
DATA S_Z0[2,1] RI
DATA S_Z0[2,2] RI
DATA GAMMA[1] RI
DATA GAMMA[2] RI
DATA Z0[1] RI
DATA Z0[2] RI
DATA PORTZ[1] RI
DATA PORTZ[2] RI

VAR_LIST_BEGIN
	 1000
	 30001000
	 60001000
	 90001000
	 120001000
	 150001000
	 180001000
	 210001000
	 240001000
	 270001000
	 300001000
	 330001000
	 360001000
	 390001000
	 420001000
	 450001000
	 480001000
	 510001000
	 540001000
	 570001000
	 600001000
	 630001000
	 660001000
	 690001000
	 720001000
	 750001000
	 780001000
	 810001000
	 840001000
	 870001000
	 900001000
	 930001000
	 960001000
	 990001000
	 1020001000
	 1050001000
	 1080001000
	 1110001000
	 1140001000
	 1170001000
	 1200001000
	 1230001000
	 1260001000
	 1290001000
	 1320001000
	 1350001000
	 1380001000
	 1410001000
	 1440001000
	 1470001000
	 1500001000
	 1530001000
	 1560001000
	 1590001000
	 1620001000
	 1650001000
	 1680001000
	 1710001000
	 1740001000
	 1770001000
	 1800001000
	 1830001000
	 1860001000
	 1890001000
	 1920001000
	 1950001000
	 1980001000
	 2010001000
	 2040001000
	 2070001000
	 2100001000
	 2130001000
	 2160001000
	 2190001000
	 2220001000
	 2250001000
	 2280001000
	 2310001000
	 2340001000
	 2370001000
	 2400001000
	 2430001000
	 2460001000
	 2490001000
	 2520001000
	 2550001000
	 2580001000
	 2610001000
	 2640001000
	 2670001000
	 2700001000
	 2730001000
	 2760001000
	 2790001000
	 2820001000
	 2850001000
	 2880001000
	 2910001000
	 2940001000
	 2970001000
	 3000001000
	 3030001000
	 3060001000
	 3090001000
	 3120001000
	 3150001000
	 3180001000
	 3210001000
	 3240001000
	 3270001000
	 3300001000
	 3330001000
	 3360001000
	 3390001000
	 3420001000
	 3450001000
	 3480001000
	 3510001000
	 3540001000
	 3570001000
	 3600001000
	 3630001000
	 3660001000
	 3690001000
	 3720001000
	 3750001000
	 3780001000
	 3810001000
	 3840001000
	 3870001000
	 3900001000
	 3930001000
	 3960001000
	 3990001000
	 4020001000
	 4050001000
	 4080001000
	 4110001000
	 4140001000
	 4170001000
	 4200001000
	 4230001000
	 4260001000
	 4290001000
	 4320001000
	 4350001000
	 4380001000
	 4410001000
	 4440001000
	 4470001000
	 4500000000
VAR_LIST_END

BEGIN
	 0.999999999999295896557782725722 ,	 -2.15145686379415505178342193405e-09 
	 0.9997668975142429692581913514 ,	 -0.0209020976960994434024065924405 
	 0.999096531236347118465346284211 ,	 -0.0417957404048434830179381549442 
	 0.997987027459969033849063180242 ,	 -0.06270175370570199580022574537 
	 0.996434991317913465458389055129 ,	 -0.0836311706415556049831749874102 
	 0.994435666224493086673419384169 ,	 -0.104593495556681903568829739015 
	 0.991982931411733437343514196982 ,	 -0.125597803739058322403110423693 
	 0.989069331,	-0.146652519
	 0.98568597,	-0.167766063
	 0.981822502,	-0.18894651
	 0.977467057,	-0.210201682
	 0.972606129,	-0.231539338
	 0.967224747,	-0.252966088
	 0.961305933,	-0.274489301
	 0.95483107,	-0.296115143
	 0.947779572,	-0.317849469
	 0.940128727,	-0.339697788
	 0.931853896,	-0.361664284
	 0.922927805,	-0.383753269
	 0.913321174,	-0.405967038
	 0.903001745,	-0.428307753
	 0.891934803,	-0.450775617
	 0.880082751,	-0.473369327
	 0.867404801,	-0.496086038
	 0.853856862,	-0.518920891
	 0.839390869,	-0.541867406
	 0.823955929,	-0.564914904
	 0.807496811,	-0.588050247
	 0.789954129,	-0.61125663
	 0.771263947,	-0.634513216
	 0.751357736,	-0.657794212
	 0.730162654,	-0.68106761
	 0.70760064,	-0.704295204
	 0.683588559,	-0.727431236
	 0.658037771,	-0.75042157
	 0.63085501,	-0.773201557
	 0.601942028,	-0.795695074
	 0.571195674,	-0.817812966
	 0.538508522,	-0.839450988
	 0.50376705,	-0.860489145
	 0.466859746,	-0.880784906
	 0.427671942,	-0.900174949
	 0.3860895,	-0.918471027
	 0.342001448,	-0.935456807
	 0.295303172,	-0.950884657
	 0.245900515,	-0.964472328
	 0.193714936,	-0.975899657
	 0.138689896,	-0.984805484
	 0.0807978371,	-0.990785054
	 0.0200516743,	-0.993387848
	-0.0434852075,	-0.99211721
	-0.109686395,	-0.986431385
	-0.178347327,	-0.97574695
	-0.249168942,	-0.95944551
	-0.321740329,	-0.936884478
	-0.395520987,	-0.907412853
	-0.469824062,	-0.870392827
	-0.543802399,	-0.825227622
	-0.61643846,	-0.771396312
	-0.686540566,	-0.708495854
	-0.752752133,	-0.63628546
	-0.813570115,	-0.554735128
	-0.867378256,	-0.464072211
	-0.912494716,	-0.364821585
	-0.947232279,	-0.257834407
	-0.969967389,	-0.144299696
	-0.97921093,	-0.0257356217
	-0.973671688,	 0.0960419625
	-0.952301949,	 0.218965079
	-0.914313962,	 0.340775955
	-0.859157094,	 0.459078978
	-0.786446952,	 0.571369076
	-0.695842808,	 0.674994697
	-0.586871969,	 0.767004382
	-0.458718692,	 0.843772626
	-0.310049164,	 0.900207017
	-0.139148897,	 0.928143536
	 0.0546196481,	 0.913236486
	 0.264651132,	 0.829932709
	 0.457084144,	 0.64001511
	 0.533213505,	 0.330114124
	 0.379399581,	 0.0348497712
	 0.127632105,	-0.038819019
	 0.0104948829,	 0.00735127653
	-0.0309648482,	-0.0406468423
	-0.22481699,	-0.161911759
	-0.571284721,	-0.0580596674
	-0.7297326,	 0.273848175
	-0.675265145,	 0.563195277
	-0.547445257,	 0.745987278
	-0.412024771,	 0.853899242
	-0.287035411,	 0.916701977
	-0.175399344,	 0.952066086
	-0.0761444507,	 0.969981812
	 0.0124275795,	 0.976275132
	 0.0919216912,	 0.974511828
	 0.163680091,	 0.966984042
	 0.228792575,	 0.955229969
	 0.288140932,	 0.94032211
	 0.342443737,	 0.923032072
	 0.392292488,	 0.903929616
	 0.438180715,	 0.883444624
	 0.480524408,	 0.861907027
	 0.519678044,	 0.83957359
	 0.555946658,	 0.816646259
	 0.589594844,	 0.793285213
	 0.620853822,	 0.769618256
	 0.649926903,	 0.745747779
	 0.676993944,	 0.721755898
	 0.702214676,	 0.69770857
	 0.72573161,	 0.673658631
	 0.74767237,	 0.649648199
	 0.768151564,	 0.62571066
	 0.787272488,	 0.601872078
	 0.805128348,	 0.578152579
	 0.821803288,	 0.554567584
	 0.837373664,	 0.531128233
	 0.851908762,	 0.507842238
	 0.865471526,	 0.484714438
	 0.878119194,	 0.461747281
	 0.889903841,	 0.438941219
	 0.900872873,	 0.41629503
	 0.911069465,	 0.393806071
	 0.920532905,	 0.371470556
	 0.929298956,	 0.34928371
	 0.937400131,	 0.327239956
	 0.944865977,	 0.305332982
	 0.951723261,	 0.283556015
	 0.957996216,	 0.261901758
	 0.96370672,	 0.240362494
	 0.968874404,	 0.218930354
	 0.973516882,	 0.197597014
	 0.977649829,	 0.176354015
	 0.981287031,	 0.155192703
	 0.984440568,	 0.134104503
	 0.987120874,	 0.113080631
	 0.989336794,	 0.0921122068
	 0.99109568781245349633479690965 ,	 0.0711904080304146674729182109331 
	 0.992403416518772063525943849527 ,	 0.050306275625348326197006088023 
	 0.993264425428879271784410320834 ,	 0.0294509167945645154718103952973 
	 0.993681768406850629560267407214 ,	 0.00861543209851975064217377564546 
	 0.993657130006159072799221121386 ,	 -0.0122090219328417817074017293066 
	 0.993190840609657343840410703706 ,	 -0.0330312838785965373622488527872 
	 0.992281887190563427481038161204 ,	 -0.0538600525557819814759241694446 
	 0.99092790525822271874289981497 ,	 -0.074704040671126625827724865303 
	 0.989125177,	-0.095571794
	 0.986868611,	-0.116471794
	 0.984151712,	-0.137412356
	 0.98096655,	-0.158401722
	 0.97730371,	-0.179447903
	 0.97315238,	-0.200558042
END
BEGIN
	 -7.99180454e-17 ,	 4.55576495e-13 
	 3.18561375e-07 ,	 1.546486e-05 
	 1.28871266e-06 ,	 3.10126681e-05 
	 2.92060348e-06 ,	 4.66626356e-05 
	 5.23047303e-06 ,	 6.24573346e-05 
	 8.24125504e-06 ,	 7.84450811e-05 
	 1.19826278e-05 ,	 9.46738521e-05 
	 1.64921657e-05 ,	 0.000111197433 
	 2.18150595e-05 ,	 0.000128067293 
	 2.80053282e-05 ,	 0.000145337649 
	 3.51264774e-05 ,	 0.000163064161 
	 4.3251807e-05 ,	 0.00018130103 
	 5.24684543e-05 ,	 0.000200114957 
	 6.28724966e-05 ,	 0.000219557385 
	 7.45766946e-05 ,	 0.000239692492 
	 8.77088652e-05 ,	 0.000260582599 
	 0.000102413015 ,	 0.00028228675 
	 0.000118856052 ,	 0.000304874267 
	 0.000137221695 ,	 0.000328399169 
	 0.00015772489 ,	 0.000352931912 
	 0.000180602406 ,	 0.00037852494 
	 0.000206127072 ,	 0.000405238527 
	 0.000234608127 ,	 0.000433128408 
	 0.000266393994 ,	 0.000462239851 
	 0.000301878964 ,	 0.00049260811 
	 0.000341500781 ,	 0.000524240934 
	 0.000385771726 ,	 0.000557156029 
	 0.000435263849 ,	 0.000591334878 
	 0.000490624775 ,	 0.000626728945 
	 0.000552584125 ,	 0.000663246747 
	 0.000621967006 ,	 0.000700747449 
	 0.000699717935 ,	 0.000739039202 
	 0.000786897845 ,	 0.000777843379 
	 0.000884705139 ,	 0.000816781438 
	 0.000994483252 ,	 0.000855341052 
	 0.00111775727 ,	 0.000892864809 
	 0.00125624195 ,	 0.000928499463 
	 0.00141185527 ,	 0.000961144131 
	 0.00158673893 ,	 0.00098939475 
	 0.00178322616 ,	 0.00101143187 
	 0.00200398494 ,	 0.00102505018 
	 0.00225190442 ,	 0.00102744012 
	 0.00253012111 ,	 0.00101508935 
	 0.00284199976 ,	 0.000983628989 
	 0.00319108913 ,	 0.000927647448 
	 0.00358104423 ,	 0.000840469528 
	 0.00401550717 ,	 0.000713900686 
	 0.00449792355 ,	 0.000537931035 
	 0.00503124312 ,	 0.000300394927 
	 0.00561764977 ,	 -1.33711475e-05 
	 0.00625797408 ,	 -0.000420933255 
	 0.00695105593 ,	 -0.000943146873 
	 0.00769285047 ,	 -0.00160450857 
	 0.00847539484,	-0.00243342598
	 0.00928504267,	-0.00346237284
	 0.0101014479,	-0.00472771496
	 0.0108949257,	-0.00626932159
	 0.0116244911,	-0.0081295935
	 0.0122352419,	-0.0103518707
	 0.0126560276,	-0.0129782965
	 0.0127967886,	-0.0160465947
	 0.0125464102,	-0.019586181
	 0.0117709466,	-0.0236134711
	 0.0103123737,	-0.0281266054
	 0.0079877122,	-0.0330998163
	 0.00458802423,	-0.038477707
	-0.000123682385,	-0.0441692669
	-0.0064163059,	-0.0500409944
	-0.0146003876,	-0.0559078128
	-0.0250442487,	-0.0615188021
	-0.0382019069,	-0.0665311129
	-0.0546563948,	-0.0704572851
	-0.0751827097,	-0.0725693207
	-0.1008334,	-0.071712765
	-0.133030866,	-0.0659409304
	-0.173602022,	-0.0517962962
	-0.224475209,	-0.0228646067
	-0.286043683,	 0.0330284173
	-0.350802044,	 0.138292144
	-0.383186854,	 0.325986048
	-0.282169847,	 0.600266679
	 0.0672720051,	 0.809208096
	 0.527035994,	 0.712985708
	 0.826838325,	 0.355200054
	 0.883912937,	-0.109669472
	 0.633080716,	-0.540323693
	 0.174485592,	-0.647764775
	-0.109267991,	-0.45801713
	-0.177697299,	-0.264276029
	-0.165132582,	-0.145436313
	-0.136010982,	-0.0794045231
	-0.108493699,	-0.0426673373
	-0.0861257246,	-0.0217557483
	-0.0686833805,	-0.00958600988
	-0.0552035724,	-0.00240061796
	-0.0447617342,	 0.00185657755
	-0.0366044053,	 0.00435010899
	-0.0301785438,	 0.00576030384
	-0.0250696412,	 0.00649644772
	-0.0209688278,	 0.00680990912
	-0.0176530754,	 0.00686016642
	-0.0149486929,	 0.00674727222
	-0.012726422,	 0.00653608857
	-0.0108875807,	 0.00626868777
	-0.00935613033,	 0.00597242815
	-0.00807296463,	 0.00566505083
	-0.00699174911,	 0.00535793424
	-0.00607586653,	 0.00505828273
	-0.00529613673,	 0.00477038984
	 -0.00462922302 ,	 0.00449677828 
	 -0.00405627126 ,	 0.00423867566 
	 -0.00356195999 ,	 0.00399648841 
	 -0.00313377577 ,	 0.00377008183 
	 -0.00276134281 ,	 0.00355858044 
	 -0.00243626069 ,	 0.00336194104 
	 -0.00215154004 ,	 0.00317936674 
	 -0.00190138281 ,	 0.00300998545 
	 -0.00168082905 ,	 0.00285283979 
	 -0.00148568823 ,	 0.00270692183 
	 -0.00131251944 ,	 0.00257148536 
	 -0.00115833101 ,	 0.00244562083 
	 -0.00102061167 ,	 0.00232854676 
	 -0.000897222719 ,	 0.00221953979 
	 -0.000786336874 ,	 0.00211793544 
	 -0.00068638641 ,	 0.00202312378 
	 -0.000596021666 ,	 0.00193454621 
	 -0.000514076585 ,	 0.00185169146 
	 -0.000439540507 ,	 0.00177409082 
	 -0.000371534379 ,	 0.00170131362 
	 -0.000309291496 ,	 0.00163296285 
	 -0.000252141681 ,	 0.00156867128 
	 -0.000199497265 ,	 0.00150809717 
	 -0.000150860981 ,	 0.00144567811 
	 -0.000105852402 ,	 0.00139190261 
	 -6.39759795e-05 ,	 0.00134095564 
	 -2.48697441e-05 ,	 0.00129257598 
	 1.21164214e-05 ,	 0.00124992611 
	 4.6599313e-05 ,	 0.00120560813 
	 7.91082369e-05 ,	 0.00116308114 
	 0.000109845198 ,	 0.00112210466 
	 0.000138982028 ,	 0.00108243892 
	 0.000166662764 ,	 0.00104384414 
	 0.0001930037 ,	 0.00100607594 
	 0.00021809389 ,	 0.000968882764 
	 0.000241994701 ,	 0.000932002494 
	 0.000264745891 ,	 0.000895151059 
	 0.000286328146 ,	 0.00085803355 
	 0.000306904614 ,	 0.000820047961 
	 0.000325994533 ,	 0.00078133721 
	 0.000343683017 ,	 0.00074126884 
	 0.000359976517 ,	 0.000698495613 
END
BEGIN
	 -7.99180454e-17 ,	 4.55576495e-13 
	 3.18561375e-07 ,	 1.546486e-05 
	 1.28871266e-06 ,	 3.10126681e-05 
	 2.92060348e-06 ,	 4.66626356e-05 
	 5.23047303e-06 ,	 6.24573346e-05 
	 8.24125504e-06 ,	 7.84450811e-05 
	 1.19826278e-05 ,	 9.46738521e-05 
	 1.64921657e-05 ,	 0.000111197433 
	 2.18150595e-05 ,	 0.000128067293 
	 2.80053282e-05 ,	 0.000145337649 
	 3.51264774e-05 ,	 0.000163064161 
	 4.3251807e-05 ,	 0.00018130103 
	 5.24684543e-05 ,	 0.000200114957 
	 6.28724966e-05 ,	 0.000219557385 
	 7.45766946e-05 ,	 0.000239692492 
	 8.77088652e-05 ,	 0.000260582599 
	 0.000102413015 ,	 0.00028228675 
	 0.000118856052 ,	 0.000304874267 
	 0.000137221695 ,	 0.000328399169 
	 0.00015772489 ,	 0.000352931912 
	 0.000180602406 ,	 0.00037852494 
	 0.000206127072 ,	 0.000405238527 
	 0.000234608127 ,	 0.000433128408 
	 0.000266393994 ,	 0.000462239851 
	 0.000301878964 ,	 0.00049260811 
	 0.000341500781 ,	 0.000524240934 
	 0.000385771726 ,	 0.000557156029 
	 0.000435263849 ,	 0.000591334878 
	 0.000490624775 ,	 0.000626728945 
	 0.000552584125 ,	 0.000663246747 
	 0.000621967006 ,	 0.000700747449 
	 0.000699717935 ,	 0.000739039202 
	 0.000786897845 ,	 0.000777843379 
	 0.000884705139 ,	 0.000816781438 
	 0.000994483252 ,	 0.000855341052 
	 0.00111775727 ,	 0.000892864809 
	 0.00125624195 ,	 0.000928499463 
	 0.00141185527 ,	 0.000961144131 
	 0.00158673893 ,	 0.00098939475 
	 0.00178322616 ,	 0.00101143187 
	 0.00200398494 ,	 0.00102505018 
	 0.00225190442 ,	 0.00102744012 
	 0.00253012111 ,	 0.00101508935 
	 0.00284199976 ,	 0.000983628989 
	 0.00319108913 ,	 0.000927647448 
	 0.00358104423 ,	 0.000840469528 
	 0.00401550717 ,	 0.000713900686 
	 0.00449792355 ,	 0.000537931035 
	 0.00503124312 ,	 0.000300394927 
	 0.00561764977 ,	 -1.33711475e-05 
	 0.00625797408 ,	 -0.000420933255 
	 0.00695105593 ,	 -0.000943146873 
	 0.00769285047 ,	 -0.00160450857 
	 0.00847539484,	-0.00243342598
	 0.00928504267,	-0.00346237284
	 0.0101014479,	-0.00472771496
	 0.0108949257,	-0.00626932159
	 0.0116244911,	-0.0081295935
	 0.0122352419,	-0.0103518707
	 0.0126560276,	-0.0129782965
	 0.0127967886,	-0.0160465947
	 0.0125464102,	-0.019586181
	 0.0117709466,	-0.0236134711
	 0.0103123737,	-0.0281266054
	 0.0079877122,	-0.0330998163
	 0.00458802423,	-0.038477707
	-0.000123682385,	-0.0441692669
	-0.0064163059,	-0.0500409944
	-0.0146003876,	-0.0559078128
	-0.0250442487,	-0.0615188021
	-0.0382019069,	-0.0665311129
	-0.0546563948,	-0.0704572851
	-0.0751827097,	-0.0725693207
	-0.1008334,	-0.071712765
	-0.133030866,	-0.0659409304
	-0.173602022,	-0.0517962962
	-0.224475209,	-0.0228646067
	-0.286043683,	 0.0330284173
	-0.350802044,	 0.138292144
	-0.383186854,	 0.325986048
	-0.282169847,	 0.600266679
	 0.0672720051,	 0.809208096
	 0.527035994,	 0.712985708
	 0.826838325,	 0.355200054
	 0.883912937,	-0.109669472
	 0.633080716,	-0.540323693
	 0.174485592,	-0.647764775
	-0.109267991,	-0.45801713
	-0.177697299,	-0.264276029
	-0.165132582,	-0.145436313
	-0.136010982,	-0.0794045231
	-0.108493699,	-0.0426673373
	-0.0861257246,	-0.0217557483
	-0.0686833805,	-0.00958600988
	-0.0552035724,	-0.00240061796
	-0.0447617342,	 0.00185657755
	-0.0366044053,	 0.00435010899
	-0.0301785438,	 0.00576030384
	-0.0250696412,	 0.00649644772
	-0.0209688278,	 0.00680990912
	-0.0176530754,	 0.00686016642
	-0.0149486929,	 0.00674727222
	-0.012726422,	 0.00653608857
	-0.0108875807,	 0.00626868777
	-0.00935613033,	 0.00597242815
	-0.00807296463,	 0.00566505083
	-0.00699174911,	 0.00535793424
	-0.00607586653,	 0.00505828273
	-0.00529613673,	 0.00477038984
	 -0.00462922302 ,	 0.00449677828 
	 -0.00405627126 ,	 0.00423867566 
	 -0.00356195999 ,	 0.00399648841 
	 -0.00313377577 ,	 0.00377008183 
	 -0.00276134281 ,	 0.00355858044 
	 -0.00243626069 ,	 0.00336194104 
	 -0.00215154004 ,	 0.00317936674 
	 -0.00190138281 ,	 0.00300998545 
	 -0.00168082905 ,	 0.00285283979 
	 -0.00148568823 ,	 0.00270692183 
	 -0.00131251944 ,	 0.00257148536 
	 -0.00115833101 ,	 0.00244562083 
	 -0.00102061167 ,	 0.00232854676 
	 -0.000897222719 ,	 0.00221953979 
	 -0.000786336874 ,	 0.00211793544 
	 -0.00068638641 ,	 0.00202312378 
	 -0.000596021666 ,	 0.00193454621 
	 -0.000514076585 ,	 0.00185169146 
	 -0.000439540507 ,	 0.00177409082 
	 -0.000371534379 ,	 0.00170131362 
	 -0.000309291496 ,	 0.00163296285 
	 -0.000252141681 ,	 0.00156867128 
	 -0.000199497265 ,	 0.00150809717 
	 -0.000150860981 ,	 0.00144567811 
	 -0.000105852402 ,	 0.00139190261 
	 -6.39759795e-05 ,	 0.00134095564 
	 -2.48697441e-05 ,	 0.00129257598 
	 1.21164214e-05 ,	 0.00124992611 
	 4.6599313e-05 ,	 0.00120560813 
	 7.91082369e-05 ,	 0.00116308114 
	 0.000109845198 ,	 0.00112210466 
	 0.000138982028 ,	 0.00108243892 
	 0.000166662764 ,	 0.00104384414 
	 0.0001930037 ,	 0.00100607594 
	 0.00021809389 ,	 0.000968882764 
	 0.000241994701 ,	 0.000932002494 
	 0.000264745891 ,	 0.000895151059 
	 0.000286328146 ,	 0.00085803355 
	 0.000306904614 ,	 0.000820047961 
	 0.000325994533 ,	 0.00078133721 
	 0.000343683017 ,	 0.00074126884 
	 0.000359976517 ,	 0.000698495613 
END
BEGIN
	 0.999999999999295896557782725722 ,	 -2.15149160612316692505121592919e-09 
	 0.999766872478360490994475640036 ,	 -0.0209032710786202918784582038825 
	 0.999096431913787497158807582309 ,	 -0.0417980890121617057464398214961 
	 0.997986804119659565159849989868 ,	 -0.0627052807762184111206593684074 
	 0.996434593422873327028810308548 ,	 -0.0836358810412884262630583975806 
	 0.994435042124891310777456965297 ,	 -0.104599395648289419935572652776 
	 0.99198202793548373445986499064 ,	 -0.125604902085587250004650172741 
	 0.989068093,	-0.146660826
	 0.985684341,	-0.167775588
	 0.981820422,	-0.188957268
	 0.977464463,	-0.210213687
	 0.972602956,	-0.231552605
	 0.967220924,	-0.252980635
	 0.961301386,	-0.274505147
	 0.954825721,	-0.296132307
	 0.947773336,	-0.31786797
	 0.940121514,	-0.33971765
	 0.931845608,	-0.361685527
	 0.922918337,	-0.383775917
	 0.913310416,	-0.40599111
	 0.902989566,	-0.428333286
	 0.891921085,	-0.450802606
	 0.880067345,	-0.473397799
	 0.867387552,	-0.496116012
	 0.853837601,	-0.518952384
	 0.839369413,	-0.541900425
	 0.823932084,	-0.564949448
	 0.807470354,	-0.588086322
	 0.789924834,	-0.611294214
	 0.771231559,	-0.634552285
	 0.751321965,	-0.657834746
	 0.730123205,	-0.68110955
	 0.707557183,	-0.704338482
	 0.683540742,	-0.727475758
	 0.657985208,	-0.750467212
	 0.630797281,	-0.77324817
	 0.601878682,	-0.795742466
	 0.57112623,	-0.817860893
	 0.538432437,	-0.839499171
	 0.503683791,	-0.860537208
	 0.46676874,	-0.880832402
	 0.42757255,	-0.900221361
	 0.385981081,	-0.918515719
	 0.341883328,	-0.935499026
	 0.295174672,	-0.950923507
	 0.245760962,	-0.96450675
	 0.193563633,	-0.97592842
	 0.138526301,	-0.984827126
	 0.0806213493,	-0.990797908
	 0.0198619173,	-0.993389981
	-0.0436884367,	-0.992106426
	-0.109903137,	-0.986405206
	-0.178577313,	-0.975702603
	-0.249411469,	-0.959379951
	-0.321994249,	-0.936794398
	-0.395784565,	-0.907294729
	-0.470094762,	-0.870243053
	-0.544076899,	-0.825042579
	-0.616712475,	-0.771172579
	-0.68680897,	-0.708230245
	-0.753008723,	-0.6359754
	-0.81380753,	-0.554379108
	-0.86758843,	-0.463669637
	-0.912668812,	-0.364373327
	-0.947360922,	-0.257343225
	-0.970041163,	-0.143770041
	-0.979220665,	-0.0251739416
	-0.97360888,	 0.0966271322
	-0.952159109,	 0.219563548
	-0.914085068,	 0.341375311
	-0.858837429,	 0.459666023
	-0.786033551,	 0.571928712
	-0.695334189,	 0.675510499
	-0.586267968,	 0.767458147
	-0.458020661,	 0.844143181
	-0.309260702,	 0.900468246
	-0.138277841,	 0.928261093
	 0.0555542015,	 0.913162526
