CITIFILE A.01.01
#Momentum: B.11.40.482 (*) built: Dec  2 2014 
#Momentum Date and Time: Wed Dec  1 21:32:27 2021

NAME PortSet1/TwoP0_Dsolver_data/first_odd_mode_is_1/most_even_mode_is_1/PMLG4/LS0

CONSTANT NBR_OF_PORTS 2

VAR freq MAG 29

DATA GAMMA_1[1] RI
DATA Z0_1[1,1] RI
DATA LAMBADAI_1[1,1] RI
DATA Zcir_1[1,1] RI
DATA Ycir_1[1,1] RI

VAR_LIST_BEGIN
	 23438319.44
	 23672702.63
	 23907085.83
	 24141469.02
	 30466859.61
	 36358838.93
	 42250818.25
	 48142797.57
	 58141359.38
	 74409807.48
	 96381299.62
	 118352791.8
	 140324283.9
	 165561178.1
	 200225307.3
	 250697026.9
	 321643345
	 412271069.4
	 518695346
	 644648274.1
	 802323245.4
	 1004933808
	 1261882055
	 1582330289
	 1980856855
	 2479079210
	 3104253988
	 3888527760
	 4500000000
VAR_LIST_END

BEGIN
	 0.01321210738,	 0.6638257029
	 0.01327237593,	 0.6704378838
	 0.01333288658,	 0.6770495164
	 0.01339363267,	 0.6836606009
	 0.01509903822,	 0.8618726406
	 0.01673924996,	 1.027541149
	 0.0183621694,	 1.192932399
	 0.0199273601,	 1.358095562
	 0.0223989851,	 1.637981145
	 0.02590672472,	 2.092706935
	 0.02985720918,	 2.706173396
	 0.03324110637,	 3.319264546
	 0.03628911146,	 3.932119089
	 0.03952292464,	 4.635819702
	 0.04363553552,	 5.602032744
	 0.04911233734,	 7.008257931
	 0.0560419751,	 8.984041485
	 0.06395906236,	 11.50687337
	 0.07232470863,	 14.46839185
	 0.08130948651,	 17.97231656
	 0.09155371966,	 22.35762227
	 0.1035407299,	 27.99144985
	 0.1173824046,	 35.13488798
	 0.1331272282,	 44.04247187
	 0.1510341534,	 55.11953197
	 0.1715580527,	 68.9675055
	 0.1952213502,	 86.34550585
	 0.222559026,	 108.1504098
	 0.2425243356,	 125.1557036
END
BEGIN
	 112.014452002728390311858674977 ,	 -2.15066371754048413222903946007 
	 112.010585728919096482059103437 ,	 -2.13867169228270403991132297961 
	 112.006709421100453027975163423 ,	 -2.12695490640044049257539882092 
	 112.002823349523268348093552049 ,	 -2.11550424947353343796407898481 
	 111.895365645802939980057999492 ,	 -1.88160448356832499250401724566 
	 111.79435949805755967645382043 ,	 -1.74258739805600804118057567393 
	 111.696687707454145765950670466 ,	 -1.640744294490887655868505135 
	 111.605022355061535677123174537 ,	 -1.55910099758999409758075671562 
	 111.466614272418283348997647408 ,	 -1.44588975025292243437036177056 
	 111.287621921430172733380459249 ,	 -1.29941986126915254295965951314 
	 111.117206558486387280026974622 ,	 -1.14780139614335507936004887597 
	 110.999595864009393153537530452 ,	 -1.03353966471245772851261790493 
	 110.913568139944942458896548487 ,	 -0.945589088072513295202270455775 
	 110.838527676525913534533174243 ,	 -0.866987921217334367440798814641 
	 110.760784834091850825643632561 ,	 -0.78481977032394423243744085994 
	 110.67857088657632402828312479 ,	 -0.697741876309218689300450932933 
	 110.598129348134804672554309946 ,	 -0.612086707424502551866396515834 
	 110.528117343948764528249739669 ,	 -0.536577439611046091982871075743 
	 110.471499282906833627748710569 ,	 -0.474485684073048197273436699106 
	 110.424434748547810158925130963 ,	 -0.421865217657403090978363024988 
	 110.382956039085598831661627628 ,	 -0.374327187251824178293446721 
	 110.34605036439566561057290528 ,	 -0.330504582805642821430325284382 
	 110.314464063359721990309481043 ,	 -0.290899093532027974706721806797 
	 110.288797121304327220059349202 ,	 -0.25572808935534113716769866187 
	 110.269317263058425737654033583 ,	 -0.224510688769318289548237999043 
	 110.256654200726103454144322313 ,	 -0.196616020552092818363121295988 
	 110.252310908750715157111699227 ,	 -0.171599342759569922778339901015 
	 110.258947612729912179929669946 ,	 -0.14917882627986581156598333564 
	 110.271039089222696816250390839 ,	 -0.135916389500932821565726271729 
END
BEGIN
	 0.01321210738,	 0.6638257029
	 0.01327237593,	 0.6704378838
	 0.01333288658,	 0.6770495164
	 0.01339363267,	 0.6836606009
	 0.01509903822,	 0.8618726406
	 0.01673924996,	 1.027541149
	 0.0183621694,	 1.192932399
	 0.0199273601,	 1.358095562
	 0.0223989851,	 1.637981145
	 0.02590672472,	 2.092706935
	 0.02985720918,	 2.706173396
	 0.03324110637,	 3.319264546
	 0.03628911146,	 3.932119089
	 0.03952292464,	 4.635819702
	 0.04363553552,	 5.602032744
	 0.04911233734,	 7.008257931
	 0.0560419751,	 8.984041485
	 0.06395906236,	 11.50687337
	 0.07232470863,	 14.46839185
	 0.08130948651,	 17.97231656
	 0.09155371966,	 22.35762227
	 0.1035407299,	 27.99144985
	 0.1173824046,	 35.13488798
	 0.1331272282,	 44.04247187
	 0.1510341534,	 55.11953197
	 0.1715580527,	 68.9675055
	 0.1952213502,	 86.34550585
	 0.222559026,	 108.1504098
	 0.2425243356,	 125.1557036
END
BEGIN
	 0.00771802084798292 ,	 1.33975432171611e-09 
	 0.00775221056158662 ,	 1.33966153465281e-09 
	 0.00778654126693336 ,	 1.33956840980581e-09 
	 0.00782100898496626 ,	 1.33947495885166e-09 
	 0.00878935207515582 ,	 1.33686960037691e-09 
	 0.00972030478829408 ,	 1.33440702134261e-09 
	 0.01063967996,	 1.332024771e-09
	 0.01152389614,	 1.329790478e-09
	 0.01291395548,	 1.326419773e-09
	 0.01487112068,	 1.322061987e-09
	 0.01705145073,	 1.317905173e-09
	 0.0189003637,	 1.315024253e-09
	 0.02055348979,	 1.312906615e-09
	 0.02229674912,	 1.31105019e-09
	 0.02449946444,	 1.309116305e-09
	 0.02740856398,	 1.307057679e-09
	 0.03104912963,	 1.30502692e-09
	 0.03515406398,	 1.303241891e-09
	 0.03943102316,	 1.301782228e-09
	 0.04395836069,	 1.300554085e-09
	 0.04904047488,	 1.29945646e-09
	 0.05488438124,	 1.298462531e-09
	 0.06150203486,	 1.297591362e-09
	 0.06886978422,	 1.296857936e-09
	 0.07705605827,	 1.296266194e-09
	 0.08620365193,	 1.295825439e-09
	 0.09646272321,	 1.295561898e-09
	 0.1079628265,	 1.295522928e-09
	 0.1161417442,	 1.295651093e-09
END
BEGIN
	 0.00156916015746939 ,	 1.51603824243238e-08 
	 0.00158485216274525 ,	 1.51603149342372e-08 
	 0.00160054416560085 ,	 1.516024810925e-08 
	 0.00161623616602309 ,	 1.51601819363876e-08 
	 0.00203972133069624 ,	 1.51586036085997e-08 
	 0.00243418779597168 ,	 1.51574045732463e-08 
	 0.00282865239913369 ,	 1.51563860842878e-08 
	 0.00322311505869682 ,	 1.51555008407786e-08 
	 0.0038925051007266 ,	 1.5154221375174e-08 
	 0.00498164283516524 ,	 1.51525489578447e-08 
	 0.00645256209917865 ,	 1.51507956912859e-08 
	 0.00792345284922837 ,	 1.51494046682046e-08 
	 0.00939431570620657 ,	 1.51482517724676e-08 
	 0.01108374479,	 1.514713268e-08
	 0.01340420405,	 1.514584731e-08
	 0.01678273493,	 1.514432903e-08
	 0.02153162186,	 1.514264873e-08
	 0.0275976261,	 1.514097856e-08
	 0.03472061933,	 1.513943735e-08
	 0.04315034347,	 1.513798176e-08
	 0.05370287014,	 1.513651917e-08
	 0.06726270258,	 1.513501372e-08
	 0.08445979742,	 1.513348376e-08
	 0.1059092214,	 1.513194007e-08
	 0.1325907995,	 1.513035525e-08
	 0.1659600154,	 1.512866515e-08
	 0.2078584945,	 1.512676378e-08
	 0.2604708495,	 1.512447459e-08
	 0.3015368073,	 1.512264657e-08
END
CITIFILE A.01.01
NAME PortSet2/TwoP0_Dsolver_data/first_odd_mode_is_1/most_even_mode_is_1/PMLG4/LS0

VAR freq MAG 29

DATA GAMMA_1[1] RI
DATA Z0_1[1,1] RI
DATA LAMBADAI_1[1,1] RI
DATA Zcir_1[1,1] RI
DATA Ycir_1[1,1] RI

VAR_LIST_BEGIN
	 23438319.44
	 23672702.63
	 23907085.83
	 24141469.02
	 30466859.61
	 36358838.93
	 42250818.25
	 48142797.57
	 58141359.38
	 74409807.48
	 96381299.62
	 118352791.8
	 140324283.9
	 165561178.1
	 200225307.3
	 250697026.9
	 321643345
	 412271069.4
	 518695346
	 644648274.1
	 802323245.4
	 1004933808
	 1261882055
	 1582330289
	 1980856855
	 2479079210
	 3104253988
	 3888527760
	 4500000000
VAR_LIST_END

BEGIN
	 0.01321210738,	 0.6638257029
	 0.01327237593,	 0.6704378838
	 0.01333288658,	 0.6770495164
	 0.01339363267,	 0.6836606009
	 0.01509903822,	 0.8618726406
	 0.01673924996,	 1.027541149
	 0.0183621694,	 1.192932399
	 0.0199273601,	 1.358095562
	 0.0223989851,	 1.637981145
	 0.02590672472,	 2.092706935
	 0.02985720918,	 2.706173396
	 0.03324110637,	 3.319264546
	 0.03628911146,	 3.932119089
	 0.03952292464,	 4.635819702
	 0.04363553552,	 5.602032744
	 0.04911233734,	 7.008257931
	 0.0560419751,	 8.984041485
	 0.06395906236,	 11.50687337
	 0.07232470863,	 14.46839185
	 0.08130948651,	 17.97231656
	 0.09155371966,	 22.35762227
	 0.1035407299,	 27.99144985
	 0.1173824046,	 35.13488798
	 0.1331272282,	 44.04247187
	 0.1510341534,	 55.11953197
	 0.1715580527,	 68.9675055
	 0.1952213502,	 86.34550585
	 0.222559026,	 108.1504098
	 0.2425243356,	 125.1557036
END
BEGIN
	 112.014452002728390311858674977 ,	 -2.15066371754048413222903946007 
	 112.010585728919096482059103437 ,	 -2.13867169228270403991132297961 
	 112.006709421100453027975163423 ,	 -2.12695490640044049257539882092 
	 112.002823349523268348093552049 ,	 -2.11550424947353343796407898481 
	 111.895365645802939980057999492 ,	 -1.88160448356832499250401724566 
	 111.79435949805755967645382043 ,	 -1.74258739805600804118057567393 
	 111.696687707454145765950670466 ,	 -1.640744294490887655868505135 
	 111.605022355061535677123174537 ,	 -1.55910099758999409758075671562 
	 111.466614272418283348997647408 ,	 -1.44588975025292243437036177056 
	 111.287621921430172733380459249 ,	 -1.29941986126915254295965951314 
	 111.117206558486387280026974622 ,	 -1.14780139614335507936004887597 
	 110.999595864009393153537530452 ,	 -1.03353966471245772851261790493 
	 110.913568139944942458896548487 ,	 -0.945589088072513295202270455775 
	 110.838527676525913534533174243 ,	 -0.866987921217334367440798814641 
	 110.760784834091850825643632561 ,	 -0.78481977032394423243744085994 
	 110.67857088657632402828312479 ,	 -0.697741876309218689300450932933 
	 110.598129348134804672554309946 ,	 -0.612086707424502551866396515834 
	 110.528117343948764528249739669 ,	 -0.536577439611046091982871075743 
	 110.471499282906833627748710569 ,	 -0.474485684073048197273436699106 
	 110.424434748547810158925130963 ,	 -0.421865217657403090978363024988 
	 110.382956039085598831661627628 ,	 -0.374327187251824178293446721 
	 110.34605036439566561057290528 ,	 -0.330504582805642821430325284382 
	 110.314464063359721990309481043 ,	 -0.290899093532027974706721806797 
	 110.288797121304327220059349202 ,	 -0.25572808935534113716769866187 
	 110.269317263058425737654033583 ,	 -0.224510688769318289548237999043 
	 110.256654200726103454144322313 ,	 -0.196616020552092818363121295988 
	 110.252310908750715157111699227 ,	 -0.171599342759569922778339901015 
	 110.258947612729912179929669946 ,	 -0.14917882627986581156598333564 
	 110.271039089222696816250390839 ,	 -0.135916389500932821565726271729 
END
BEGIN
	 0.01321210738,	 0.6638257029
	 0.01327237593,	 0.6704378838
	 0.01333288658,	 0.6770495164
	 0.01339363267,	 0.6836606009
	 0.01509903822,	 0.8618726406
	 0.01673924996,	 1.027541149
	 0.0183621694,	 1.192932399
	 0.0199273601,	 1.358095562
	 0.0223989851,	 1.637981145
	 0.02590672472,	 2.092706935
	 0.02985720918,	 2.706173396
	 0.03324110637,	 3.319264546
	 0.03628911146,	 3.932119089
	 0.03952292464,	 4.635819702
	 0.04363553552,	 5.602032744
	 0.04911233734,	 7.008257931
	 0.0560419751,	 8.984041485
	 0.06395906236,	 11.50687337
	 0.07232470863,	 14.46839185
	 0.08130948651,	 17.97231656
	 0.09155371966,	 22.35762227
	 0.1035407299,	 27.99144985
	 0.1173824046,	 35.13488798
	 0.1331272282,	 44.04247187
	 0.1510341534,	 55.11953197
	 0.1715580527,	 68.9675055
	 0.1952213502,	 86.34550585
	 0.222559026,	 108.1504098
	 0.2425243356,	 125.1557036
END
BEGIN
	 0.00771802084798292 ,	 1.33975432171611e-09 
	 0.00775221056158662 ,	 1.33966153465281e-09 
	 0.00778654126693336 ,	 1.33956840980581e-09 
	 0.00782100898496626 ,	 1.33947495885166e-09 
	 0.00878935207515582 ,	 1.33686960037691e-09 
	 0.00972030478829408 ,	 1.33440702134261e-09 
	 0.01063967996,	 1.332024771e-09
	 0.01152389614,	 1.329790478e-09
	 0.01291395548,	 1.326419773e-09
	 0.01487112068,	 1.322061987e-09
	 0.01705145073,	 1.317905173e-09
	 0.0189003637,	 1.315024253e-09
	 0.02055348979,	 1.312906615e-09
	 0.02229674912,	 1.31105019e-09
	 0.02449946444,	 1.309116305e-09
	 0.02740856398,	 1.307057679e-09
	 0.03104912963,	 1.30502692e-09
	 0.03515406398,	 1.303241891e-09
	 0.03943102316,	 1.301782228e-09
	 0.04395836069,	 1.300554085e-09
	 0.04904047488,	 1.29945646e-09
	 0.05488438124,	 1.298462531e-09
	 0.06150203486,	 1.297591362e-09
	 0.06886978422,	 1.296857936e-09
	 0.07705605827,	 1.296266194e-09
	 0.08620365193,	 1.295825439e-09
	 0.09646272321,	 1.295561898e-09
	 0.1079628265,	 1.295522928e-09
	 0.1161417442,	 1.295651093e-09
END
BEGIN
	 0.00156916015746939 ,	 1.51603824243238e-08 
	 0.00158485216274525 ,	 1.51603149342372e-08 
	 0.00160054416560085 ,	 1.516024810925e-08 
	 0.00161623616602309 ,	 1.51601819363876e-08 
	 0.00203972133069624 ,	 1.51586036085997e-08 
	 0.00243418779597168 ,	 1.51574045732463e-08 
	 0.00282865239913369 ,	 1.51563860842878e-08 
	 0.00322311505869682 ,	 1.51555008407786e-08 
	 0.0038925051007266 ,	 1.5154221375174e-08 
	 0.00498164283516524 ,	 1.51525489578447e-08 
	 0.00645256209917865 ,	 1.51507956912859e-08 
	 0.00792345284922837 ,	 1.51494046682046e-08 
	 0.00939431570620657 ,	 1.51482517724676e-08 
	 0.01108374479,	 1.514713268e-08
	 0.01340420405,	 1.514584731e-08
	 0.01678273493,	 1.514432903e-08
	 0.02153162186,	 1.514264873e-08
	 0.0275976261,	 1.514097856e-08
	 0.03472061933,	 1.513943735e-08
	 0.04315034347,	 1.513798176e-08
	 0.05370287014,	 1.513651917e-08
	 0.06726270258,	 1.513501372e-08
	 0.08445979742,	 1.513348376e-08
	 0.1059092214,	 1.513194007e-08
	 0.1325907995,	 1.513035525e-08
	 0.1659600154,	 1.512866515e-08
	 0.2078584945,	 1.512676378e-08
	 0.2604708495,	 1.512447459e-08
	 0.3015368073,	 1.512264657e-08
END
