CITIFILE A.01.01
#Momentum: B.11.40.482 (*) built: Dec  2 2014 
#Momentum Date and Time: Mon Sep 20 18:15:11 2021

NAME Momentum.SP

#  mode: MW    project: proj

CONSTANT NBR_OF_PORTS 4

CONSTANT NORMALIZATION 1

VAR freq MAG 100

DATA S[1,1] RI
DATA S[1,2] RI
DATA S[1,3] RI
DATA S[1,4] RI
DATA S[2,1] RI
DATA S[2,2] RI
DATA S[2,3] RI
DATA S[2,4] RI
DATA S[3,1] RI
DATA S[3,2] RI
DATA S[3,3] RI
DATA S[3,4] RI
DATA S[4,1] RI
DATA S[4,2] RI
DATA S[4,3] RI
DATA S[4,4] RI
DATA PORTZ[1] RI
DATA PORTZ[2] RI
DATA PORTZ[3] RI
DATA PORTZ[4] RI

VAR_LIST_BEGIN
	 200000000
	 258585900
	 317171800
	 375757700
	 434343600
	 492929500
	 551515400
	 610101300
	 668687200
	 727273100
	 785859000
	 844444900
	 903030800
	 961616700
	 1020202600
	 1078788500
	 1137374400
	 1195960300
	 1254546200
	 1313132100
	 1371718000
	 1430303900
	 1488889800
	 1547475700
	 1606061600
	 1664647500
	 1723233400
	 1781819300
	 1840405200
	 1898991100
	 1957577000
	 2016162900
	 2074748800
	 2133334700
	 2191920600
	 2250506500
	 2309092400
	 2367678300
	 2426264200
	 2484850100
	 2543436000
	 2602021900
	 2660607800
	 2719193700
	 2777779600
	 2836365500
	 2894951400
	 2953537300
	 3012123200
	 3070709100
	 3129295000
	 3187880900
	 3246466800
	 3305052700
	 3363638600
	 3422224500
	 3480810400
	 3539396300
	 3597982200
	 3656568100
	 3715154000
	 3773739900
	 3832325800
	 3890911700
	 3949497600
	 4008083500
	 4066669400
	 4125255300
	 4183841200
	 4242427100
	 4301013000
	 4359598900
	 4418184800
	 4476770700
	 4535356600
	 4593942500
	 4652528400
	 4711114300
	 4769700200
	 4828286100
	 4886872000
	 4945457900
	 5004043800
	 5062629700
	 5121215600
	 5179801500
	 5238387400
	 5296973300
	 5355559200
	 5414145100
	 5472731000
	 5531316900
	 5589902800
	 5648488700
	 5707074600
	 5765660500
	 5824246400
	 5882832300
	 5941418200
	 6000000000
VAR_LIST_END

BEGIN
	 0.219007155,	 0.181857219
	 0.293985012,	 0.157271889
	 0.351629813,	 0.111450282
	 0.390403522,	 0.0531580021
	 0.410843439,	-0.011537037
	 0.413960856,	-0.0783713663
	 0.400715159,	-0.144005231
	 0.371991295,	-0.205414222
	 0.328797193,	-0.259515344
	 0.272602656,	-0.302995462
	 0.205780981,	-0.33235305
	 0.132097891,	-0.344278622
	 0.0570149024,	-0.336496444
	-0.0126288547,	-0.309003847
	-0.0699889718,	-0.265168769
	-0.110491244,	-0.211687942
	-0.133841345,	-0.156716993
	-0.144242582,	-0.106810703
	-0.14840542,	-0.0644417939
	-0.152493104,	-0.0274434042
	-0.159508405,	 0.00963742307
	-0.167934068,	 0.0530382564
	-0.171948903,	 0.10684503
	-0.163469968,	 0.170464756
	-0.135721181,	 0.237865106
	-0.0866366846,	 0.29960214
	-0.0198197003,	 0.346729846
	 0.0574759933,	 0.373966039
	 0.137481842,	 0.380355919
	 0.214064521,	 0.367953501
	 0.283294912,	 0.340058213
	 0.343019994,	 0.299994896
	 0.392161196,	 0.2505918
	 0.430133274,	 0.1941245
	 0.45648087,	 0.132471512
	 0.470698398,	 0.0673271363
	 0.472162713,	 0.000412371245
	 0.460139302,	-0.0663227771
	 0.433987133,	-0.130482842
	 0.392906664,	-0.188975462
	 0.336650653,	-0.237595406
	 0.26624669,	-0.270726473
	 0.185401687,	-0.281462905
	 0.102545406,	-0.263175051
	 0.0316836945,	-0.21323815
	-0.0104804895,	-0.138615662
	-0.0132642863,	-0.0575388145
	 0.0198675987,	 0.0079173885
	 0.0730314585,	 0.0436132117
	 0.127940309,	 0.0481786544
	 0.1717404,	 0.0287772753
	 0.198232572,	-0.00498302495
	 0.205895146,	-0.044264287
	 0.195843998,	-0.0817295947
	 0.170909912,	-0.111285162
	 0.135588272,	-0.128004687
	 0.0961322125,	-0.128693555
	 0.0601754338,	-0.11308498
	 0.0350605766,	-0.084777972
	 0.0254524833,	-0.0510338488
	 0.0313173682,	-0.0206449199
	 0.0478623617,	-0.000823109746
	 0.0674675601,	 0.00506249544
	 0.0823385924,	-0.00195723688
	 0.0863043679,	-0.0175261495
	 0.0757224058,	-0.0350351092
	 0.0499553199,	-0.0465478607
	 0.0121057005,	-0.0435895644
	-0.0300825279,	-0.0188910201
	-0.0642554695,	 0.0304640055
	-0.0764480831,	 0.0994155982
	-0.0573781971,	 0.174437346
	-0.00777884131,	 0.238705813
	 0.0623711542,	 0.279919721
	 0.139903256,	 0.294224755
	 0.214129853,	 0.284507884
	 0.278828874,	 0.256510555
	 0.331472341,	 0.215900365
	 0.371640195,	 0.167052036
	 0.399720677,	 0.112988132
	 0.41614999,	 0.0557095545
	 0.421035077,	-0.00329287835
	 0.41404318,	-0.0626186574
	 0.39448251,	-0.1204867
	 0.36155162,	-0.174371856
	 0.314845843,	-0.220645677
	 0.255159022,	-0.254458411
	 0.185638002,	-0.270130254
	 0.113016506,	-0.26255416
	 0.0477990945,	-0.23001508
	 0.00179594744,	-0.177378624
	-0.0172001123,	-0.116771333
	-0.0102941934,	-0.0632547744
	 0.0126772909,	-0.0277929663
	 0.0384929825,	-0.0130332541
	 0.0562352634,	-0.0141854201
	 0.0600273618,	-0.0225562554
	 0.0491340971,	-0.0286281583
	 0.0273522295,	-0.0238369165
	 0.00247671919 ,	 -0.0023495384 
END
BEGIN
	 0.665218093,	-0.631840982
	 0.513566443,	-0.724652003
	 0.361250223,	-0.785283134
	 0.210789464,	-0.820027776
	 0.0628266196,	-0.8324217
	-0.0822512673,	-0.824080372
	-0.22372965,	-0.795488889
	-0.360409532,	-0.746485466
	-0.490524208,	-0.67650627
	-0.611588322,	-0.584714771
	-0.72008793,	-0.47020176
	-0.811087495,	-0.332444932
	-0.877982029,	-0.17221336
	-0.912851665,	 0.00711425671
	-0.907877235,	 0.198334204
	-0.857702704,	 0.390286488
	-0.761633743,	 0.569492472
	-0.624228276,	 0.722946446
	-0.453991368,	 0.840387218
	-0.261407509,	 0.914955045
	-0.0577809268,	 0.94266895
	 0.144851647,	 0.922074497
	 0.333653951,	 0.854902758
	 0.496067959,	 0.747353018
	 0.622459655,	 0.61040419
	 0.70883537,	 0.45776833
	 0.757396087,	 0.302126993
	 0.774305445,	 0.152135148
	 0.766455754,	 0.0118985788
	 0.739280959,	-0.117607117
	 0.696178618,	-0.236705633
	 0.638940604,	-0.345757304
	 0.568457211,	-0.444609088
	 0.485295997,	-0.532516269
	 0.390052658,	-0.608272613
	 0.28350741,	-0.670377241
	 0.166658398,	-0.717158114
	 0.040688888,	-0.746807026
	-0.0930337933,	-0.757275776
	-0.232967924,	-0.746167181
	-0.377105342,	-0.71031635
	-0.522245423,	-0.645492418
	-0.662632725,	-0.546501563
	-0.78797955,	-0.408657081
	-0.882593186,	-0.231615279
	-0.928284457,	-0.0248225455
	-0.913066902,	 0.190720253
	-0.839309237,	 0.38989055
	-0.722001914,	 0.555150021
	-0.578809951,	 0.681244744
	-0.422340546,	 0.770880068
	-0.259157805,	 0.828433343
	-0.0921772586,	 0.856600037
	 0.0766226215,	 0.855668271
	 0.24436155,	 0.824156246
	 0.406172032,	 0.759973421
	 0.554777971,	 0.661964907
	 0.680955955,	 0.531674132
	 0.775320101,	 0.37471278
	 0.830884859,	 0.200706845
	 0.845169928,	 0.0213435233
	 0.820343119,	-0.152600241
	 0.761362949,	-0.313284472
	 0.673507433,	-0.455934462
	 0.560976391,	-0.577366088
	 0.426827275,	-0.674307359
	 0.274253081,	-0.742137177
	 0.10839289,	-0.774918509
	-0.0616598032,	-0.766869557
	-0.222308371,	-0.715797621
	-0.358101982,	-0.627048032
	-0.457958606,	-0.514335254
	-0.520478377,	-0.394770124
	-0.553293257,	-0.28122045
	-0.567091734,	-0.178457329
	-0.570058123,	-0.0848986101
	-0.565943928,	 0.00349077509
	-0.554911069,	 0.0902818805
	-0.535129979,	 0.177367842
	-0.504090907,	 0.26486863
	-0.459375465,	 0.351423206
	-0.399036485,	 0.434566225
	-0.321764433,	 0.510966773
	-0.2269845,	 0.576595675
	-0.11499451,	 0.626703406
	 0.0127079466,	 0.655764524
	 0.152787958,	 0.657524495
	 0.299063111,	 0.625485691
	 0.441450436,	 0.554413003
	 0.565932616,	 0.443154924
	 0.657057289,	 0.297888228
	 0.703361519,	 0.13285476
	 0.702343039,	-0.0338442892
	 0.660401725,	-0.187098959
	 0.587768771,	-0.318736492
	 0.493296604,	-0.426324796
	 0.382648759,	-0.509393108
	 0.259609323,	-0.566635811
	 0.128444128,	-0.59527568
	-0.0040059862,	-0.59235519
END
BEGIN
	 0.176824246,	 0.139427757
	 0.2327561,	 0.114259365
	 0.271771299,	 0.0745965076
	 0.294342742,	 0.0286234165
	 0.302744602,	-0.018708432
	 0.299282991,	-0.0646905756
	 0.285657316,	-0.107817492
	 0.262886447,	-0.146988033
	 0.231527255,	-0.180941904
	 0.192080411,	-0.207906754
	 0.145565617,	-0.225501782
	 0.0941755123,	-0.231024685
	 0.0417705709,	-0.22226082
	-0.00624110909,	-0.198762533
	-0.0441029386,	-0.163068569
	-0.0678822196,	-0.120856321
	-0.0774868367,	-0.0792920093
	-0.0770009961,	-0.0441453317
	-0.0728651491,	-0.0173856652
	-0.0709919193,	 0.00339764854
	-0.0742669756,	 0.0237316041
	-0.0812464807,	 0.0498882097
	-0.0863454945,	 0.0860893772
	-0.0817647707,	 0.132075306
	-0.0609133965,	 0.182330216
	-0.0217317867,	 0.228001734
	 0.0323152514,	 0.260702324
	 0.0941715364,	 0.275666827
	 0.156305079,	 0.272485493
	 0.212930532,	 0.253834825
	 0.260683826,	 0.223679385
	 0.298261257,	 0.185941074
	 0.325713948,	 0.143834506
	 0.34379079,	 0.099680356
	 0.353447007,	 0.0549711586
	 0.355506012,	 0.010550019
	 0.350426284,	-0.0331567818
	 0.338157744,	-0.075855736
	 0.317983122,	-0.117045647
	 0.288868024,	-0.15551393
	 0.249514339,	-0.188901945
	 0.19920559,	-0.213128519
	 0.139281367,	-0.222200131
	 0.0752998322,	-0.209313926
	 0.0186244513,	-0.170402823
	-0.0157166362,	-0.109655134
	-0.0169027887,	-0.0422055648
	 0.0132258134,	 0.0120100694
	 0.06067529,	 0.0395213942
	 0.108389143,	 0.0387483201
	 0.144090507,	 0.0166243197
	 0.162061843,	-0.01717465
	 0.161393276,	-0.0537234008
	 0.14397698,	-0.0857692298
	 0.113412492,	-0.107604942
	 0.074754199,	-0.11494859
	 0.0345523427,	-0.105359194
	 0.00041038262,	-0.0792422336
	-0.020450608,	-0.0407111491
	-0.0234782348,	 0.00259357423
	-0.00873544493,	 0.041478072
	 0.0189205712,	 0.0682138027
	 0.0516399168,	 0.0788414862
	 0.0811899775,	 0.073725362
	 0.100738568,	 0.0567500132
	 0.105859657,	 0.03415891
	 0.0950124678,	 0.0137396741
	 0.070188659,	 0.00390158288
	 0.0377984964,	 0.0122744912
	 0.00882451857,	 0.0428352197
	-0.00363996934,	 0.0924004559
	 0.00996791185,	 0.149707546
	 0.0504710618,	 0.199632048
	 0.109912062,	 0.230264733
	 0.17663836,	 0.237022743
	 0.240513008,	 0.221694612
	 0.295136091,	 0.189165692
	 0.337455919,	 0.144783747
	 0.366565108,	 0.0931194062
	 0.382643048,	 0.0376817718
	 0.386271306,	-0.0188719447
	 0.378077231,	-0.0744915568
	 0.358562495,	-0.127414804
	 0.328058947,	-0.175895689
	 0.28680724,	-0.217873615
	 0.235223268,	-0.25068583
	 0.174477651,	-0.270796818
	 0.107481645,	-0.273947749
	 0.0399830613,	-0.256214489
	-0.019033505,	-0.216285186
	-0.0590958828,	-0.158403675
	-0.0728171821,	-0.0934311197
	-0.060591801,	-0.0354856233
	-0.0310916349,	 0.00432110921
	 0.00304583336,	 0.0222786138
	 0.0305529224,	 0.0218478817
	 0.0444156892,	 0.0108391565
	 0.0424520843,	-0.00134330998
	 0.027018669,	-0.00578732087
	 0.00461741284 ,	 0.00434874408 
END
BEGIN
	-0.121507235,	-0.0303994414
	-0.14345708,	 0.0131353395
	-0.143559504,	 0.0613789722
	-0.124856238,	 0.10467304
	-0.0927214466,	 0.137152231
	-0.0530390599,	 0.155967362
	-0.0114340788,	 0.160506287
	 0.0270585811,	 0.151892526
	 0.0582271935,	 0.132712605
	 0.079005982,	 0.106836011
	 0.0879320727,	 0.0791619067
	 0.0857057962,	 0.055082964
	 0.0756122569,	 0.0394749211
	 0.0633439822,	 0.035225128
	 0.0557447787,	 0.0417989778
	 0.0585489855,	 0.0548239982
	 0.074186609,	 0.0674096387
	 0.101097519,	 0.072647108
	 0.134881259,	 0.0656582198
	 0.170097906,	 0.0440680509
	 0.201271135,	 0.00734072257
	 0.222773401,	-0.0437440095
	 0.228488627,	-0.106568078
	 0.212563777,	-0.175445972
	 0.171676548,	-0.241217993
	 0.107517573,	-0.293072289
	 0.0272417786,	-0.322069044
	-0.058776211,	-0.323990929
	-0.140223353,	-0.299802004
	-0.209153259,	-0.254154506
	-0.260702676,	-0.19341207
	-0.29275739,	-0.124175582
	-0.305275614,	-0.0524929506
	-0.299669509,	 0.01645055
	-0.278365387,	 0.0784049808
	-0.244528238,	 0.130054332
	-0.201892646,	 0.169025757
	-0.154658173,	 0.193954158
	-0.1073548,	 0.204639446
	-0.0647499764,	 0.202313197
	-0.0313756218,	 0.190039525
	-0.0107188281,	 0.173141653
	-0.00372233189,	 0.159229177
	-0.00655874545,	 0.157032736
	-0.00908191933,	 0.172689957
	 0.00308588606,	 0.204175982
	 0.0406657187,	 0.238499935
	 0.102293232,	 0.257702237
	 0.175001848,	 0.249979808
	 0.243287588,	 0.21496231
	 0.296844923,	 0.160055995
	 0.332142683,	 0.0944321288
	 0.350289208,	 0.0252603409
	 0.354361166,	-0.0433891695
	 0.347368528,	-0.110249375
	 0.330893076,	-0.17591405
	 0.304342759,	-0.241427055
	 0.265110177,	-0.306575949
	 0.209904866,	-0.36845357
	 0.137005787,	-0.421253819
	 0.0482121127,	-0.457902087
	-0.0509901316,	-0.472730011
	-0.15319641,	-0.463392166
	-0.251554671,	-0.430959989
	-0.341264909,	-0.378464385
	-0.41984444,	-0.309044868
	-0.486065139,	-0.224559258
	-0.538232388,	-0.125042677
	-0.57218849,	-0.00979857545
	-0.580354549,	 0.119845038
	-0.553645755,	 0.256906882
	-0.486674647,	 0.387640019
	-0.382767727,	 0.495545504
	-0.253792715,	 0.568306774
	-0.114964001,	 0.601730487
	 0.0204815387,	 0.598640579
	 0.143563518,	 0.565499286
	 0.249254849,	 0.509608811
	 0.335320678,	 0.437757778
	 0.401315503,	 0.355795131
	 0.447950151,	 0.268640013
	 0.476761367,	 0.180338203
	 0.489952842,	 0.0940899207
	 0.490245971,	 0.0120979186
	 0.480680645,	-0.0645971954
	 0.464220462,	-0.136397668
	 0.443057697,	-0.205306544
	 0.417537305,	-0.274722901
	 0.384895271,	-0.348342273
	 0.33870948,	-0.427728819
	 0.270609182,	-0.509228824
	 0.174744407,	-0.582723707
	 0.0524396254,	-0.634743182
	-0.0872616584,	-0.654445595
	-0.23175766,	-0.63761059
	-0.36983824,	-0.586009923
	-0.493798223,	-0.50422716
	-0.598772344,	-0.396855545
	-0.680848227,	-0.267397598
	-0.73521208,	-0.119152211
END
BEGIN
	 0.665218093,	-0.631840982
	 0.513566443,	-0.724652003
	 0.361250223,	-0.785283134
	 0.210789464,	-0.820027776
	 0.0628266196,	-0.8324217
	-0.0822512673,	-0.824080372
	-0.22372965,	-0.795488889
	-0.360409532,	-0.746485466
	-0.490524208,	-0.67650627
	-0.611588322,	-0.584714771
	-0.72008793,	-0.47020176
	-0.811087495,	-0.332444932
	-0.877982029,	-0.17221336
	-0.912851665,	 0.00711425671
	-0.907877235,	 0.198334204
	-0.857702704,	 0.390286488
	-0.761633743,	 0.569492472
	-0.624228276,	 0.722946446
	-0.453991368,	 0.840387218
	-0.261407509,	 0.914955045
	-0.0577809268,	 0.94266895
	 0.144851647,	 0.922074497
	 0.333653951,	 0.854902758
	 0.496067959,	 0.747353018
	 0.622459655,	 0.61040419
	 0.70883537,	 0.45776833
	 0.757396087,	 0.302126993
	 0.774305445,	 0.152135148
	 0.766455754,	 0.0118985788
	 0.739280959,	-0.117607117
	 0.696178618,	-0.236705633
	 0.638940604,	-0.345757304
	 0.568457211,	-0.444609088
	 0.485295997,	-0.532516269
	 0.390052658,	-0.608272613
	 0.28350741,	-0.670377241
	 0.166658398,	-0.717158114
	 0.040688888,	-0.746807026
	-0.0930337933,	-0.757275776
	-0.232967924,	-0.746167181
	-0.377105342,	-0.71031635
	-0.522245423,	-0.645492418
	-0.662632725,	-0.546501563
	-0.78797955,	-0.408657081
	-0.882593186,	-0.231615279
	-0.928284457,	-0.0248225455
	-0.913066902,	 0.190720253
	-0.839309237,	 0.38989055
	-0.722001914,	 0.555150021
	-0.578809951,	 0.681244744
	-0.422340546,	 0.770880068
	-0.259157805,	 0.828433343
	-0.0921772586,	 0.856600037
	 0.0766226215,	 0.855668271
	 0.24436155,	 0.824156246
	 0.406172032,	 0.759973421
	 0.554777971,	 0.661964907
	 0.680955955,	 0.531674132
	 0.775320101,	 0.37471278
	 0.830884859,	 0.200706845
	 0.845169928,	 0.0213435233
	 0.820343119,	-0.152600241
	 0.761362949,	-0.313284472
	 0.673507433,	-0.455934462
	 0.560976391,	-0.577366088
	 0.426827275,	-0.674307359
	 0.274253081,	-0.742137177
	 0.10839289,	-0.774918509
	-0.0616598032,	-0.766869557
	-0.22230837,	-0.715797621
	-0.358101982,	-0.627048032
	-0.457958606,	-0.514335254
	-0.520478377,	-0.394770124
	-0.553293257,	-0.28122045
	-0.567091734,	-0.178457329
	-0.570058123,	-0.0848986101
	-0.565943928,	 0.0034907751
	-0.554911069,	 0.0902818805
	-0.535129979,	 0.177367842
	-0.504090907,	 0.26486863
	-0.459375465,	 0.351423206
	-0.399036485,	 0.434566225
	-0.321764433,	 0.510966773
	-0.2269845,	 0.576595675
	-0.11499451,	 0.626703406
	 0.0127079466,	 0.655764524
	 0.152787958,	 0.657524495
	 0.299063111,	 0.625485691
	 0.441450436,	 0.554413003
	 0.565932616,	 0.443154924
	 0.657057289,	 0.297888228
	 0.703361519,	 0.13285476
	 0.702343039,	-0.0338442892
	 0.660401725,	-0.187098959
	 0.587768771,	-0.318736492
	 0.493296604,	-0.426324796
	 0.382648759,	-0.509393108
	 0.259609323,	-0.566635811
	 0.128444128,	-0.59527568
	-0.0040059862,	-0.59235519
END
BEGIN
	 0.217700306,	 0.183113282
	 0.293036619,	 0.158607426
	 0.351002591,	 0.112772853
	 0.39004938,	 0.0544018632
	 0.410710539,	-0.0104180166
	 0.413995948,	-0.0774082805
	 0.400864484,	-0.143216359
	 0.372201469,	-0.204805765
	 0.329016517,	-0.259081551
	 0.272783,	-0.302718496
	 0.205880392,	-0.332202954
	 0.132084136,	-0.344213841
	 0.0568699046,	-0.336465788
	-0.0129043011,	-0.308950987
	-0.0703722234,	-0.26504001
	-0.110939172,	-0.211442154
	-0.134297333,	-0.156334408
	-0.144647478,	-0.106296908
	-0.148708735,	-0.0638254381
	-0.152660859,	-0.0267698092
	-0.15952733,	 0.0103145183
	-0.167812724,	 0.0536646705
	-0.171716271,	 0.107375025
	-0.163170402,	 0.170868812
	-0.135405419,	 0.238135265
	-0.0863512323,	 0.299751405
	-0.0195982618,	 0.346786364
	 0.0576157271,	 0.373964421
	 0.13753631,	 0.380329807
	 0.2140404,	 0.367931453
	 0.283205298,	 0.340062308
	 0.342881566,	 0.300040734
	 0.391992344,	 0.250688963
	 0.429952711,	 0.194277128
	 0.456306634,	 0.132678747
	 0.47054684,	 0.0675837482
	 0.472047724,	 0.000709473856
	 0.460071721,	-0.0659970836
	 0.433974222,	-0.130142619
	 0.392951877,	-0.188636145
	 0.336753678,	-0.237271979
	 0.266403095,	-0.270434441
	 0.185603103,	-0.281216091
	 0.102779431,	-0.26298489
	 0.0319338219,	-0.213112032
	-0.0102340433,	-0.138554584
	-0.0130327473,	-0.0575360591
	 0.0200710859,	 0.00787221078
	 0.0732038151,	 0.0435300386
	 0.128081276,	 0.0480640726
	 0.171850258,	 0.0286344507
	 0.19830954,	-0.00515317277
	 0.205935373,	-0.0444617625
	 0.195840503,	-0.0819548592
	 0.170852794,	-0.111535253
	 0.13546574,	-0.128272686
	 0.0959323907,	-0.128967727
	 0.0598892194,	-0.113346246
	 0.0346839516,	-0.0850036175
	 0.0249899437,	-0.0511972571
	 0.0307815402,	-0.0207208114
	 0.0472750104,	-0.000789957562
	 0.0668550733,	 0.00521970389
	 0.0817312942,	-0.0016676321
	 0.0857352788,	-0.0171030801
	 0.0752257475,	-0.034485796
	 0.0495654441,	-0.0458891762
	 0.0118535959,	-0.0428497361
	-0.0301746227,	-0.0181099092
	-0.0641804629,	 0.03123724
	-0.0762194494,	 0.100132151
	-0.0570270209,	 0.175059924
	-0.00734416742,	 0.239215819
	 0.0628537617,	 0.280315548
	 0.140408128,	 0.29451483
	 0.214640282,	 0.284701794
	 0.279334513,	 0.256616406
	 0.331965307,	 0.215923909
	 0.372112196,	 0.166996301
	 0.400162964,	 0.112856322
	 0.416552576,	 0.0555051598
	 0.421387452,	-0.00356504323
	 0.414334869,	-0.0629522077
	 0.39470281,	-0.120873485
	 0.361690223,	-0.174801221
	 0.314893195,	-0.221104846
	 0.255106968,	-0.254931703
	 0.185480693,	-0.270598389
	 0.112752159,	-0.262995813
	 0.0474314518,	-0.230406503
	 0.00133565661,	-0.177695869
	-0.0177362997,	-0.116994011
	-0.010885259,	-0.0633683193
	 0.012054844,	-0.0277862569
	 0.0378627669,	-0.0128987308
	 0.0556257231,	-0.0139216421
	 0.0594667937,	-0.0221648213
	 0.048653665,	-0.0281186906
	 0.0269831772,	-0.0232287716
	 0.00224549102 ,	 -0.0016751406 
END
BEGIN
	-0.121567779,	-0.0306561514
	-0.143615877,	 0.0129441177
	-0.143771645,	 0.061277409
	-0.125079995,	 0.104663936
	-0.0929234285,	 0.137224703
	-0.0531954129,	 0.156102642
	-0.0115302116,	 0.160681647
	 0.0270286575,	 0.152084013
	 0.05826159,	 0.1328972
	 0.0790957747,	 0.1069936
	 0.0880625207,	 0.0792772702
	 0.0858582945,	 0.0551476252
	 0.0757672755,	 0.0394883517
	 0.0634847726,	 0.0351944691
	 0.0558607679,	 0.0417365527
	 0.0586371569,	 0.0547429686
	 0.0742497153,	 0.0673196829
	 0.101139952,	 0.0725525504
	 0.134905067,	 0.0655595255
	 0.170101266,	 0.0439654968
	 0.201249927,	 0.00723784506
	 0.222724821,	-0.043839111
	 0.228414863,	-0.106644511
	 0.21247359,	-0.175494221
	 0.171583309,	-0.241234381
	 0.107434535,	-0.293060897
	 0.0271773811,	-0.322039816
	-0.0588203233,	-0.323955396
	-0.140251188,	-0.299769389
	-0.209171747,	-0.254129745
	-0.260719017,	-0.193395793
	-0.292777234,	-0.124165157
	-0.305302235,	-0.0524838489
	-0.299703632,	 0.0164634749
	-0.278405458,	 0.0784265506
